!Agilent Technologies,E8363C,MY49030273,A.09.42.18
!Agilent E8363C: A.09.42.18
!Date: Tuesday, May 03, 2022 03:55:51
!Correction: S11(Full 2 Port(1,2)) 
!S1P File: Measurement: S11:
!
!Created with skrf (http://scikit-rf.org).
# GHz S RI R 50.0 
!freq ReS11 ImS11
0.5 -0.9706448992658075 0.2341244634725569
0.51 -0.968215757013245 0.2360372189020456
0.52 -0.9653070363162393 0.24435920066556358
0.53 -0.9661881809323525 0.24784285977425677
0.54 -0.9642871339411362 0.2509089990574831
0.55 -0.966274189099215 0.2569352630618548
0.56 -0.9650369137069841 0.25981669800823654
0.57 -0.963344261305667 0.2628632331117065
0.58 -0.9609170642926458 0.2721098917216669
0.59 -0.9579384437631444 0.27161923026935764
0.6 -0.9586282744652233 0.27709418650709366
0.61 -0.9542149217779864 0.2839707346326166
0.62 -0.9541868098483046 0.28828619745810197
0.63 -0.9523662159164399 0.2928113828405944
0.64 -0.9502330499089047 0.2943847232147692
0.65 -0.9495758854359502 0.3008372666098298
0.66 -0.951667445669291 0.305972616340362
0.67 -0.9495097899310319 0.3123781234427726
0.68 -0.9474477146581608 0.31840762474075784
0.69 -0.9448433710313283 0.31892898960687505
0.7 -0.9436649183185293 0.32323482892018957
0.71 -0.9409628408378345 0.3292802861657889
0.72 -0.9407370566268799 0.33178493823708227
0.73 -0.9383872183365545 0.33680022679068466
0.74 -0.9387454182989751 0.3393308851284831
0.75 -0.9334636581360497 0.3430950477819534
0.76 -0.9316565112918432 0.35324167068648554
0.77 -0.9314182829545038 0.3545848598068332
0.78 -0.9286232499777598 0.35600285464391124
0.79 -0.9271711366887317 0.36251793027404433
0.8 -0.9296558371671333 0.3720612718018624
0.81 -0.9246654070002617 0.3706774834734694
0.82 -0.9214957889357726 0.3767238776756313
0.83 -0.9220749972235023 0.3820224969188787
0.84 -0.9191126213970462 0.3855668887788653
0.85 -0.9189357090718815 0.3934586809804348
0.86 -0.913922274350794 0.3907969159913722
0.87 -0.9161339225552902 0.39888217743993726
0.88 -0.914594121180233 0.403060292441112
0.89 -0.9121239978978957 0.40713031164668256
0.9 -0.9090827701750703 0.41025342718382507
0.91 -0.9071669386110678 0.41416794518507033
0.92 -0.9067648258287389 0.418497041209186
0.93 -0.9025008783698834 0.4240399119365557
0.94 -0.895650459348997 0.42752431398784096
0.95 -0.8993500671587961 0.4302648503865326
0.96 -0.8945936981197918 0.43536262008178
0.97 -0.8947199892564154 0.4399585591707649
0.98 -0.8922397362639902 0.4442514529462806
0.99 -0.8935978644618172 0.4487696716936183
1.0 -0.8877759277669701 0.4493606789262948
1.01 -0.8863505294522088 0.4557417920356117
1.02 -0.8850168000008559 0.46089928290059595
1.03 -0.8815237755846423 0.46586764716875245
1.04 -0.8795403248587975 0.47144195315506066
1.05 -0.8761117167986123 0.47423275991221714
1.06 -0.8708175794619116 0.4783849630589492
1.07 -0.8747118125190148 0.4811844566752371
1.08 -0.8683001883095552 0.4847760942613326
1.09 -0.8696608755451245 0.4908165111754027
1.1 -0.8667932848551755 0.49457301365498413
1.11 -0.8617133220287538 0.4964272072620296
1.12 -0.8597615020187551 0.5024283367962331
1.13 -0.8574270378639179 0.5060672730693714
1.14 -0.85576385810715 0.5108642317046532
1.15 -0.8507725347866856 0.5141593703291433
1.16 -0.8502515464413037 0.5163217504057783
1.17 -0.8457977867733912 0.5230075615911883
1.18 -0.8477209351615469 0.5258918996512095
1.19 -0.8444930812831971 0.5304078110460821
1.2 -0.8388850829347988 0.536691583883171
1.21 -0.8422096232490257 0.5401614978646124
1.22 -0.8384778764968579 0.5390586308876566
1.23 -0.835071891139733 0.5451582898492281
1.24 -0.8304607592710976 0.551654099241812
1.25 -0.8276293020538512 0.5522305540257886
1.26 -0.825747764136523 0.5590662719059806
1.27 -0.8236906513970872 0.5578088183835541
1.28 -0.8245851359271825 0.5642530750597639
1.29 -0.8180969055162802 0.5672773626304122
1.3 -0.8177425326872875 0.573323748445235
1.31 -0.8115404848558133 0.5759249522891623
1.32 -0.81020576603872 0.5823068311817282
1.33 -0.8074543334976129 0.5838705172314975
1.34 -0.8029127253298695 0.588882666830351
1.35 -0.8000362444680496 0.5910890476381772
1.36 -0.7979339327428328 0.5979580100627018
1.37 -0.7967558785742664 0.6009368437692267
1.38 -0.7931812792838104 0.6016755855166617
1.39 -0.79115914546752 0.607496968713054
1.4 -0.788061341514941 0.6131883787682618
1.41 -0.7854989398490512 0.6137142652669553
1.42 -0.7847888307354263 0.6192124557660542
1.43 -0.7790160387533819 0.6215655460474501
1.44 -0.7770032825677601 0.6240185728038111
1.45 -0.7733752960370476 0.6275751310926064
1.46 -0.7708828415374934 0.6331093612230461
1.47 -0.7656306844774315 0.6363572418580843
1.48 -0.76037296170595 0.6374277995617308
1.49 -0.7604832584702076 0.6432178632684906
1.5 -0.7585066288258002 0.6459492120483219
1.51 -0.7562904589595818 0.649053187281677
1.52 -0.7537508202210799 0.6556583634235736
1.53 -0.749357189445707 0.656397004033889
1.54 -0.7465953040850176 0.6595980003048747
1.55 -0.747392266627363 0.6625963637294635
1.56 -0.7374519366489451 0.6687107834764436
1.57 -0.7360220382841087 0.671167413032393
1.58 -0.733560103037374 0.6759326982831118
1.59 -0.7311002410863757 0.6777798209563773
1.6 -0.7293187029315167 0.6842327331787929
1.61 -0.7234401896247028 0.6856540339679842
1.62 -0.7202496409886429 0.6885782604308686
1.63 -0.7169638926435075 0.6901811949295018
1.64 -0.7138956163993402 0.6923890311307839
1.65 -0.7137243168394531 0.6998176811758231
1.66 -0.7091124314084876 0.701832677156812
1.67 -0.6992596164847373 0.7033224249495297
1.68 -0.7005305173381213 0.7087628196987784
1.69 -0.7011686232107819 0.711425038156303
1.7 -0.6947938570880089 0.7147499920328194
1.71 -0.6940790008607206 0.7190658493163676
1.72 -0.6872958926345137 0.7188183975843924
1.73 -0.6862921267880779 0.725531285701736
1.74 -0.6839579993899135 0.729650382596284
1.75 -0.6763747290771167 0.7295336403872569
1.76 -0.6759384434629757 0.7354767674499846
1.77 -0.6737093312583703 0.7387457593651454
1.78 -0.6687926422454439 0.7399222440684932
1.79 -0.6654671930138618 0.7438909653582122
1.8 -0.658121761760415 0.7473555290975236
1.81 -0.6571460982492743 0.7491776894893781
1.82 -0.6546346565629207 0.7543651851829908
1.83 -0.6506131989715799 0.755226773906257
1.84 -0.646125072279634 0.7569009464490084
1.85 -0.6468234128445185 0.7613975559108079
1.86 -0.6447070426831986 0.7651881061245333
1.87 -0.6340316480375594 0.7664069757573064
1.88 -0.6313294739263344 0.7698378836010245
1.89 -0.629439545249258 0.7754966526360725
1.9 -0.6272547041160275 0.7776615668996176
1.91 -0.6221632351920868 0.7795016567576536
1.92 -0.6190820602639888 0.7822149553391554
1.93 -0.6149520537600556 0.7859254392690503
1.94 -0.61348677358989 0.7875024357409096
1.95 -0.603431404107116 0.7912340174339214
1.96 -0.6024955780151727 0.793354114148716
1.97 -0.5971714656143436 0.7969426213903802
1.98 -0.5941775424012565 0.7996699764573506
1.99 -0.5963304478812842 0.8028646395674707
2.0 -0.5877433261507453 0.804773797358466
2.01 -0.5830325154362384 0.8067294719257044
2.02 -0.5812220165451076 0.8092267563217586
2.03 -0.57841287630792 0.8124092247534952
2.04 -0.5690932390163338 0.815878895866409
2.05 -0.5708066917720055 0.8154753481977715
2.06 -0.5658968388053378 0.8186508484441661
2.07 -0.5609227006828159 0.8229448842925356
2.08 -0.5583810668682473 0.8235899833736632
2.09 -0.5537413196134118 0.8245129727554827
2.1 -0.5491344607607708 0.8283969576560273
2.11 -0.5449243195067461 0.8302145392697992
2.12 -0.54307797586816 0.8368875097339811
2.13 -0.5348597590701508 0.8398843016528889
2.14 -0.5363398984481182 0.8414430339353105
2.15 -0.5300198214332373 0.8414511636600774
2.16 -0.525841585906477 0.8446294477548308
2.17 -0.5232213913229598 0.8524499850141094
2.18 -0.5194714548967727 0.8485794368281632
2.19 -0.517627287289209 0.8571536767886385
2.2 -0.5080689782448845 0.8552231319074753
2.21 -0.5076784641372891 0.8599370545021735
2.22 -0.5030908114750897 0.862404727221229
2.23 -0.49725315182673 0.8593172312475064
2.24 -0.49544257509009876 0.8662573539973237
2.25 -0.489713857936101 0.8671073441402842
2.26 -0.4878496113751014 0.8722893650046946
2.27 -0.48217338313791075 0.8727187865871278
2.28 -0.484380257973908 0.8734989440588585
2.29 -0.4746040693901782 0.8748650682204158
2.3 -0.46964455685128903 0.8746660144994
2.31 -0.4654310972255542 0.879103189804882
2.32 -0.45744265667725237 0.8812314919594391
2.33 -0.4559335589986702 0.8836304263709432
2.34 -0.45400386614461785 0.8871658521652942
2.35 -0.45173907546375586 0.8911621006570762
2.36 -0.44759355070449 0.8920731598177809
2.37 -0.44148080093287756 0.8945409211579681
2.38 -0.44203024466499347 0.8943016736048223
2.39 -0.43716728594115467 0.8951010401903207
2.4 -0.42556231253455246 0.8993860188677648
2.41 -0.42145936990190347 0.9015804677090423
2.42 -0.4231541244503369 0.9015843744815588
2.43 -0.417769882839766 0.905130213066156
2.44 -0.4141061437424174 0.9049868220866544
2.45 -0.4045334404332795 0.9103395585138782
2.46 -0.4037512949099175 0.9075874701718915
2.47 -0.4033248712239772 0.9136239618414481
2.48 -0.39603435128416914 0.9156629872156644
2.49 -0.3925276203124125 0.9169631782761515
2.5 -0.38929979771082684 0.9209479493515786
2.51 -0.38378445379165166 0.918384635934658
2.52 -0.37622563986584245 0.9219673569323792
2.53 -0.3740337845879353 0.9206740468553232
2.54 -0.3707144117675079 0.9255351635314255
2.55 -0.3657555409374143 0.9289374194267276
2.56 -0.3597633775347095 0.9262318424266248
2.57 -0.3582826388720456 0.929850256755171
2.58 -0.34973016341249413 0.934732263279284
2.59 -0.3492673547899474 0.9326971678124764
2.6 -0.34823505410916944 0.934442985077531
2.61 -0.33860242134000446 0.9343548070734582
2.62 -0.3355025360763838 0.937674733786729
2.63 -0.3335312675504357 0.9394353829373241
2.64 -0.32359151684574083 0.9401637763528671
2.65 -0.3211767119491589 0.940962421861822
2.66 -0.3173910112775971 0.9455525084459963
2.67 -0.3125120428379707 0.9432926067910835
2.68 -0.3090271843688778 0.9469061758882725
2.69 -0.3042089776373199 0.9483537815655728
2.7 -0.300947269115709 0.9501818429049292
2.71 -0.29876833730769947 0.950204151508063
2.72 -0.2933009104020537 0.9522788193318726
2.73 -0.2880003863902464 0.9529066326453833
2.74 -0.285409705671427 0.9570571311775373
2.75 -0.2753976910097069 0.9579730319852754
2.76 -0.2735794974757823 0.957458340853072
2.77 -0.26855405572185614 0.9630072147243397
2.78 -0.26380979495250906 0.961389488418265
2.79 -0.2537802659254065 0.9661315560343052
2.8 -0.25856353103814034 0.9656626584690191
2.81 -0.25125041737579895 0.9654127199921609
2.82 -0.25238215042089185 0.9693832496375472
2.83 -0.24260854306595736 0.9641323298224751
2.84 -0.23751196070174452 0.9692227890933112
2.85 -0.23175464822044176 0.964821615663703
2.86 -0.22701784627388183 0.9684034654650838
2.87 -0.22270836813430578 0.971032729611518
2.88 -0.21453968028529885 0.9684458430947558
2.89 -0.2188141180332452 0.9711897295049912
2.9 -0.21292856890469075 0.9785532780313164
2.91 -0.20953968842218076 0.9767460785824951
2.92 -0.2043426389448708 0.9729069394925723
2.93 -0.20355346679096717 0.9771435213787543
2.94 -0.19022648153930172 0.9756303617489333
2.95 -0.18724804472243456 0.9794069370405344
2.96 -0.18295910057730094 0.9775052333795163
2.97 -0.18044186815585692 0.9816895357274419
2.98 -0.1741499004043645 0.9822893232923826
2.99 -0.16920463311196754 0.9822563550743088
3.0 -0.16886787545007426 0.9798924728703594
3.01 -0.16193850745835148 0.9882746596709961
3.02 -0.15988471957720884 0.984485321095819
3.03 -0.15065649027550138 0.9835939497362198
3.04 -0.14847685355462256 0.9850897357990934
3.05 -0.14421355687468926 0.984324843068714
3.06 -0.1405326729737583 0.988444607977242
3.07 -0.1322036874672134 0.988966775118743
3.08 -0.12844141113110308 0.9856393327169072
3.09 -0.1271589679064096 0.9927323501158613
3.1 -0.1191149079570279 0.9918546315920664
3.11 -0.11874767034178366 0.9906631623515127
3.12 -0.1120012556978921 0.9944244282974453
3.13 -0.10875696415009842 0.9916296176735115
3.14 -0.10607522376542383 0.9907800879105995
3.15 -0.09831596129304655 0.9900852698424879
3.16 -0.09151661472747658 0.9867929160528615
3.17 -0.08806522826695036 0.9929697863599797
3.18 -0.0853850751321203 0.9923878049092513
3.19 -0.07513960695694383 0.9930266952976016
3.2 -0.07357454049442351 0.9916062040835898
3.21 -0.07140284960980836 0.9948167532950961
3.22 -0.0677593259861809 0.9958497439589363
3.23 -0.06865377623590166 0.9915774506784854
3.24 -0.05619635408792468 0.9928628536393707
3.25 -0.05607287538496733 0.9928921929530548
3.26 -0.04886572706127961 0.9947817811001319
3.27 -0.0448570663590632 0.9953162175368854
3.28 -0.03653139584359589 0.9987841604666077
3.29 -0.03471034405570818 0.9974210432269789
3.3 -0.029011992971754604 0.9976732745520166
3.31 -0.023934373960557448 0.9967997494837001
3.32 -0.02011304653604218 0.9939962880137454
3.33 -0.01787856352776432 0.9962448383248578
3.34 -0.013925691336061172 0.9967022964940409
3.35 -0.010357777439716586 0.9959808416451312
3.36 -0.005389276351674802 0.9950387991335263
3.37 0.0021835107394893105 0.9935651425374858
3.38 0.008806353888243877 0.9962734496035508
3.39 0.011167769339299114 0.9942030482763795
3.4 0.01720319896969235 0.9933215222099188
3.41 0.02423782620932848 0.9960283637855892
3.42 0.02058790005780452 0.9929914154465668
3.43 0.029496153465510253 0.9961069823051358
3.44 0.03256533231751144 0.9962770350446523
3.45 0.03958595610807009 0.9949203711229933
3.46 0.041047323715855975 0.9961136251760765
3.47 0.04612480294313821 0.9946343095418108
3.48 0.053094501733776604 0.9936169845157065
3.49 0.058570719080709994 0.9928980241936194
3.5 0.06132072698589756 0.9916810560673933
3.51 0.06666719043339953 0.9936015575153714
3.52 0.07410475497446943 0.9941321464135566
3.53 0.07389658566514835 0.993736395493584
3.54 0.07917761002988101 0.9933932827334021
3.55 0.08040858937925784 0.9894685377731366
3.56 0.08548875990839042 0.9917277745277485
3.57 0.0907030612104305 0.9906276518872638
3.58 0.09883040253271969 0.9905057652636408
3.59 0.10157788235361373 0.9902777240189694
3.6 0.10968784987279172 0.9887202033013547
3.61 0.11083038799243639 0.9886780540040376
3.62 0.11511597738742256 0.9900034354364992
3.63 0.11921795937390497 0.9882373197574383
3.64 0.12639929048681645 0.9916138719977711
3.65 0.13132314794131458 0.9860431485377961
3.66 0.1333496689419655 0.9869308137079784
3.67 0.1371141966733457 0.9862619013018701
3.68 0.13963822787662283 0.989140024837913
3.69 0.1445248574479235 0.9863250365049061
3.7 0.1529523437239413 0.9869413616658926
3.71 0.15437081585865278 0.9819769221801694
3.72 0.16004826256415025 0.9820416472168153
3.73 0.1664033634503375 0.9843585712546761
3.74 0.16785832692034913 0.980804272497069
3.75 0.1691632308939353 0.9853008530240663
3.76 0.17774535788013276 0.9803835001202139
3.77 0.17669741287792964 0.9817492994152498
3.78 0.1852962585097411 0.9816765724279095
3.79 0.1932794588127439 0.9725017039530878
3.8 0.19574561447846114 0.9751946288066401
3.81 0.19890086647048125 0.9727279643412006
3.82 0.20716523589052557 0.9734577294297141
3.83 0.21242719037938698 0.9724497205830183
3.84 0.21495843279289395 0.9754774417648209
3.85 0.2189288517387846 0.9707668154608923
3.86 0.2178410315499679 0.9715442191446148
3.87 0.22633559404944295 0.9716094044569417
3.88 0.23349640944946237 0.9689910739066896
3.89 0.2339179479027619 0.9670150210182218
3.9 0.23909958655628594 0.9664045862234064
3.91 0.24628504548426272 0.9643095705860308
3.92 0.25123117882979096 0.9640117121627114
3.93 0.25452270395715304 0.9615831990404411
3.94 0.2600212355265127 0.9596677743831454
3.95 0.26294197238561295 0.956952182013192
3.96 0.2651000426422648 0.9575080475969576
3.97 0.26981861013134417 0.9587932548866963
3.98 0.27384928156752575 0.9561805072793579
3.99 0.2768185009727508 0.9547151144180253
4.0 0.28410736661629404 0.9554468365566129
