!Agilent Technologies,E8363C,MY49030273,A.09.42.18
!Agilent E8363C: A.09.42.18
!Date: Tuesday, May 03, 2022 03:54:47
!Correction: S22(Full 2 Port(1,2)) 
!S1P File: Measurement: S22:
!
!Created with skrf (http://scikit-rf.org).
# GHz S RI R 50.0 
!freq ReS11 ImS11
0.5 -0.9647684505665575 0.23489426283721349
0.51 -0.9654979223414613 0.23834953837756717
0.52 -0.9650556214826853 0.24364192818712258
0.53 -0.9669635507150903 0.24699106867380358
0.54 -0.9639711172521673 0.2546359921596821
0.55 -0.9601663846228772 0.25793870734282204
0.56 -0.9618783565063577 0.2672898378057301
0.57 -0.9551515583542257 0.26720970599769583
0.58 -0.9580275296888916 0.26900945256951153
0.59 -0.9619719894259626 0.27351913337561196
0.6 -0.9552442079628569 0.2796476783077149
0.61 -0.9535849762579603 0.2851136558423136
0.62 -0.9509162680504609 0.2880445381842587
0.63 -0.9510207669163552 0.29145399692371204
0.64 -0.946178035234415 0.3053183347074274
0.65 -0.9441129551947129 0.3004446876700087
0.66 -0.947227432272254 0.31113523191287756
0.67 -0.9426992536141902 0.31321668113519596
0.68 -0.9467271419064235 0.3185097729182545
0.69 -0.9435249697369411 0.3215112164375058
0.7 -0.9406757008178039 0.32657036239785353
0.71 -0.9368963294501976 0.3255339173998622
0.72 -0.9347477897286419 0.32999537350023384
0.73 -0.9352244651850886 0.3353386022463403
0.74 -0.9334908156300863 0.34329820802213346
0.75 -0.9281208244136329 0.3469444065589952
0.76 -0.9305807938609004 0.34979123798216366
0.77 -0.9296294677565637 0.3578009592834098
0.78 -0.9235725631369007 0.35927668307367333
0.79 -0.9241672323734382 0.36714707144828734
0.8 -0.9296049967660371 0.3668789888434796
0.81 -0.9247811612451168 0.3735139497305763
0.82 -0.9201010188534265 0.37882118858442976
0.83 -0.9190138983449813 0.3818062762444843
0.84 -0.9165855944332298 0.3853677792726913
0.85 -0.9161095041313174 0.38581325437241304
0.86 -0.9097625749836873 0.39647409236567766
0.87 -0.9063448584005084 0.39959553269123255
0.88 -0.9073443707596267 0.4020464967246838
0.89 -0.9096120988273275 0.4082745421554421
0.9 -0.9058495797511716 0.41286364742733783
0.91 -0.9040313734541999 0.41867545111731036
0.92 -0.9010789816142829 0.41697315137649693
0.93 -0.8992239057448228 0.4233869679696863
0.94 -0.8981783502977526 0.4287941319593091
0.95 -0.8938051023877793 0.432269067810999
0.96 -0.8914596726298171 0.43276214877850055
0.97 -0.8908661010267326 0.43999991708956715
0.98 -0.8859501491332344 0.4459260349069056
0.99 -0.8887434870141755 0.44942659966416953
1.0 -0.8864612137262388 0.45345536332957104
1.01 -0.8867790344922751 0.4567784872346417
1.02 -0.8832336402019547 0.4632906803895602
1.03 -0.881416351609364 0.46818347532239546
1.04 -0.8767002636579078 0.4684488463841765
1.05 -0.8736780457290559 0.47422071768250984
1.06 -0.8706401232742227 0.4768073113117329
1.07 -0.8701498979613962 0.4808028561365815
1.08 -0.8687678101790675 0.4827773311108248
1.09 -0.8646084607934775 0.4907438367855419
1.1 -0.8621248277031047 0.4959638207836498
1.11 -0.8645597046130827 0.5000014730030125
1.12 -0.8630764466974221 0.501517840903015
1.13 -0.8576004535334798 0.5070338014291077
1.14 -0.8552124146538463 0.5122275915585746
1.15 -0.847457003857063 0.5162796999267849
1.16 -0.8455304932536125 0.5125881205956564
1.17 -0.8458601807753252 0.5196585224176505
1.18 -0.8446732383915099 0.5247223848556029
1.19 -0.8378009508743127 0.5286512092809246
1.2 -0.8368891962781233 0.5346225002790789
1.21 -0.8379334846610091 0.5405256143631431
1.22 -0.8356003922145832 0.5436063864875146
1.23 -0.8317818848173109 0.5471719627984397
1.24 -0.830655650027188 0.5466001951099763
1.25 -0.8275664013868453 0.5582550297443016
1.26 -0.8225873639256486 0.5576437066537798
1.27 -0.8199148006922233 0.559446153575253
1.28 -0.8180595805335747 0.5638010401950652
1.29 -0.8144523080940884 0.5716463722179992
1.3 -0.811089606398324 0.5758670271772485
1.31 -0.809951420663229 0.5747075376524948
1.32 -0.807367461409228 0.5791640142395119
1.33 -0.8063008644667236 0.5851754145055001
1.34 -0.7988259340116428 0.5955941674905124
1.35 -0.7975331103578632 0.586329449016166
1.36 -0.796852914253079 0.5951157186708541
1.37 -0.7932362750189395 0.6008375679381561
1.38 -0.7878348410670604 0.601838817962712
1.39 -0.7850010313875986 0.6034782088971742
1.4 -0.7843767507633546 0.6102455560247617
1.41 -0.7810495624109163 0.6115584204399389
1.42 -0.7812795265013266 0.616513922797692
1.43 -0.7729710807392778 0.6201086380516989
1.44 -0.7734531058718828 0.6275075493225555
1.45 -0.7735051578485547 0.6287176613659098
1.46 -0.7712102974108107 0.6325615841121924
1.47 -0.763959944337045 0.6389584811978039
1.48 -0.7592106639974137 0.6378951935204255
1.49 -0.7557586628029378 0.642637128679603
1.5 -0.7531351758250517 0.6427610052175614
1.51 -0.7518911602581959 0.649938480814999
1.52 -0.7501089586437615 0.6515536952653346
1.53 -0.7469570830262616 0.6587167618952017
1.54 -0.7450004798423119 0.6627815514391389
1.55 -0.7421590231868089 0.6612223753219189
1.56 -0.73914633173433 0.6715626042165336
1.57 -0.7308080933466453 0.6732126989488671
1.58 -0.7310488316199991 0.6733057796576375
1.59 -0.7263315636283103 0.6760593617856689
1.6 -0.7285496690256936 0.6798471510969929
1.61 -0.719935605410412 0.6813234159116414
1.62 -0.7195670624522399 0.6845127887709249
1.63 -0.7170805228107678 0.691051269752493
1.64 -0.7090348796089045 0.6970561106044463
1.65 -0.7086009453394018 0.7014131659598547
1.66 -0.7058408484592504 0.7014662310689052
1.67 -0.7026722529421784 0.7049190814619807
1.68 -0.6987091693421715 0.7068224666580728
1.69 -0.6979607941785803 0.7075522524192784
1.7 -0.6920392429145475 0.7078170359014876
1.71 -0.6874092310787184 0.7141828210591739
1.72 -0.6847102541297754 0.7204718281269599
1.73 -0.6791081166275635 0.7198780240960861
1.74 -0.6782056814538031 0.7255245983324049
1.75 -0.6750317199534368 0.7312831107819882
1.76 -0.6692042518128384 0.7281346172255488
1.77 -0.6676747494002852 0.7361682817076206
1.78 -0.6625844509554097 0.7380166944402978
1.79 -0.6625514016309841 0.740957928715963
1.8 -0.6577352021603816 0.7453247897833603
1.81 -0.6531319625616067 0.7490061011993863
1.82 -0.6494877403672733 0.7512527646535098
1.83 -0.6432549452449452 0.7527926064092615
1.84 -0.6429592927307689 0.7563976363305163
1.85 -0.6416829041478661 0.7605567031983164
1.86 -0.6371782158726531 0.7625076137702123
1.87 -0.6321809578100158 0.7697077005193694
1.88 -0.6280259421965877 0.7672108888688591
1.89 -0.6273053000236135 0.7749102889652766
1.9 -0.6224343016015024 0.7809892903331479
1.91 -0.6176571503877255 0.7769190467092523
1.92 -0.6149694753412496 0.7803319584055675
1.93 -0.6049496414082263 0.7842367304954325
1.94 -0.6064933102222324 0.7840508943687842
1.95 -0.6035596278174532 0.7894583692598072
1.96 -0.598815645760277 0.7886839724330196
1.97 -0.5960618633570075 0.7957176284409246
1.98 -0.5909167200937235 0.7941689969625251
1.99 -0.5874879959582128 0.8012370864755065
2.0 -0.585773015145472 0.8065342907014664
2.01 -0.5794776833043777 0.806198737647435
2.02 -0.5770821941576847 0.8120088958278137
2.03 -0.5715593494688024 0.813870049926216
2.04 -0.5665325742467563 0.8107793181060723
2.05 -0.5672446156363341 0.8167814290443483
2.06 -0.5639408210640813 0.8190643752522836
2.07 -0.5587276609501318 0.8224739026971314
2.08 -0.5519591597323809 0.827168612979788
2.09 -0.5533246180494295 0.8297906493550017
2.1 -0.5505284163996346 0.8337155891073293
2.11 -0.5423827163027701 0.8317753887510823
2.12 -0.5379760497998523 0.837323208624811
2.13 -0.5349251747376366 0.8368871905316999
2.14 -0.5327423812353902 0.8400422070871817
2.15 -0.5283319329419414 0.8419775688760159
2.16 -0.5194686227147818 0.8437404170135467
2.17 -0.5171602736341295 0.8496619496273645
2.18 -0.5127321763857692 0.8535509892370003
2.19 -0.5120845948292216 0.8529493484835781
2.2 -0.5060624146038407 0.8577331809513572
2.21 -0.5055729917577323 0.8567750046324107
2.22 -0.4961701725335074 0.8613379061922826
2.23 -0.49321164984533544 0.8620134692136563
2.24 -0.4936812926917661 0.8615323326600165
2.25 -0.48404599928075476 0.8644392136504995
2.26 -0.4857701297640712 0.8646017560183599
2.27 -0.4841192857653997 0.8733171916234037
2.28 -0.46930721011406046 0.8721566194095343
2.29 -0.47403737706775856 0.877122151520927
2.3 -0.46688890354450163 0.8818162947130919
2.31 -0.45976615129891363 0.8801458180585174
2.32 -0.454481217434783 0.8887809055796986
2.33 -0.45081745819356484 0.8830321813396117
2.34 -0.4513316855462268 0.8853336285963875
2.35 -0.4462989612837626 0.8868681941066983
2.36 -0.44081407531115124 0.8913887538237742
2.37 -0.4364676832233178 0.8915429363090382
2.38 -0.43371452240577246 0.8932650332628055
2.39 -0.42583104864327287 0.8988082132809575
2.4 -0.4246919410799227 0.89948863487333
2.41 -0.4211526197528938 0.9041241009613394
2.42 -0.4160629788023646 0.9024795679794984
2.43 -0.4149876427291569 0.9038072367717552
2.44 -0.41118587048360117 0.9025404427539876
2.45 -0.4040784357850414 0.905102131141578
2.46 -0.3991352937505661 0.908704810728739
2.47 -0.39666514052181495 0.910774027933901
2.48 -0.38926780168913117 0.9116767457619052
2.49 -0.3858055295702838 0.9132440616609931
2.5 -0.3805101756463083 0.9156573235581524
2.51 -0.3793418327174387 0.9198887586699346
2.52 -0.3704007797085254 0.9264075015390999
2.53 -0.36854074187774166 0.9233313651007109
2.54 -0.36430321721328385 0.920427081521575
2.55 -0.35833419456165 0.9267891539568243
2.56 -0.3548220878148798 0.9257629624682795
2.57 -0.35414837848293096 0.927165515870623
2.58 -0.34908361052111453 0.9310126230304546
2.59 -0.3397020800151323 0.930977416156029
2.6 -0.33602343001294144 0.9316839973932173
2.61 -0.3349780378759878 0.9364443714164886
2.62 -0.32804541308913354 0.9361728059186117
2.63 -0.3274790233090435 0.9387682101963103
2.64 -0.3217493415713002 0.9415616300228099
2.65 -0.31463783930922024 0.9457130845620003
2.66 -0.3133299967986311 0.9438710901463973
2.67 -0.30499800444925274 0.9426935639360968
2.68 -0.3051873936083985 0.9463362011062744
2.69 -0.2999355413274141 0.9479190711277651
2.7 -0.297496040192811 0.946396931996015
2.71 -0.2904078709946551 0.9503422115076855
2.72 -0.28390048119270644 0.9527867839087456
2.73 -0.2824566135230144 0.9537912345878882
2.74 -0.27493571695490454 0.9582996722382718
2.75 -0.2751066002311106 0.9521706272750005
2.76 -0.26654195226278504 0.9539778691462398
2.77 -0.26769579591583575 0.9557253989299578
2.78 -0.2626067847375118 0.956064759773506
2.79 -0.2528898732419135 0.9569039592622739
2.8 -0.25215559619267525 0.9595731782685151
2.81 -0.237621043140068 0.9586328886509501
2.82 -0.23906151111600257 0.9656549356283264
2.83 -0.23450503406052306 0.9697738960685591
2.84 -0.22723187299367073 0.9690517644317983
2.85 -0.2241171725740894 0.9664351510893298
2.86 -0.22284960347829824 0.9626654378072013
2.87 -0.21797542237427284 0.9706949707384438
2.88 -0.21610464501041085 0.9637211249434423
2.89 -0.20852178152254056 0.9691261244625017
2.9 -0.21142336830790978 0.9702363887743874
2.91 -0.1988290723637171 0.9711114620029971
2.92 -0.19535847610595167 0.9734045650721713
2.93 -0.18651046047464034 0.9743620364290634
2.94 -0.18413569502245544 0.9731845889665031
2.95 -0.17987536265153398 0.9735842882287424
2.96 -0.174260064543604 0.9753428673505501
2.97 -0.17453190916022826 0.9775228134424407
2.98 -0.16516515327471382 0.9774492251584861
2.99 -0.1616287175984907 0.9801786404546444
3.0 -0.16164488904921986 0.976975744634088
3.01 -0.1556450668087182 0.9799878512381454
3.02 -0.14703654544168934 0.9766066587967482
3.03 -0.14472184176516878 0.9802274578867366
3.04 -0.1409382727701341 0.9852525192244813
3.05 -0.13431714648411866 0.98437266704365
3.06 -0.13039955967212935 0.9876795688159311
3.07 -0.12678167772299886 0.9852597139728211
3.08 -0.12513102517538685 0.980918833556952
3.09 -0.11639477765338788 0.9884727531370112
3.1 -0.11194957710720446 0.985740093420651
3.11 -0.11199566837853468 0.9823143541189381
3.12 -0.10530685428359346 0.9816446072924853
3.13 -0.09382442682130966 0.9822191265477963
3.14 -0.09088288916438217 0.9901555088801923
3.15 -0.08787418546879085 0.9866523108298122
3.16 -0.08917777886577576 0.9941983151037787
3.17 -0.07812146570696307 0.9883498044521755
3.18 -0.07503603915074354 0.9954246413639734
3.19 -0.07222658619480955 0.9898773969986837
3.2 -0.06481826680576637 0.986337487184381
3.21 -0.0629122152878976 0.9859982066745395
3.22 -0.061802339895647 0.9876475697860295
3.23 -0.05349696860553868 0.9921656221138381
3.24 -0.049598166082627286 0.9920683892325857
3.25 -0.04572778792813725 0.990785881007196
3.26 -0.038552047037523685 0.9925445402490001
3.27 -0.03483979723462413 0.9942216074051237
3.28 -0.033536627932826774 0.9935484267658868
3.29 -0.03140397335400213 0.9932868899348348
3.3 -0.023221635647573884 0.9889087064565704
3.31 -0.019850662169738208 0.9918312854437427
3.32 -0.013141171052986265 0.9908160987586608
3.33 -0.012142154820157694 0.9915494402669895
3.34 -0.006641596756768056 0.9925112981189548
3.35 0.0009436402473013373 0.9905012844005165
3.36 0.01100010840644694 0.9903465427866819
3.37 0.010519626169398626 0.9943374400412269
3.38 0.017735971442758087 0.992182527596572
3.39 0.020567804343643345 0.987188059994435
3.4 0.02374165548417298 0.990362354731277
3.41 0.029954102553105922 0.9928311805999196
3.42 0.02806352069734805 0.9870454163632839
3.43 0.03518577197714765 0.9921011597077701
3.44 0.03936424524502414 0.9867210999567435
3.45 0.04688335591886303 0.9882159129477456
3.46 0.053918915522627696 0.9909831216424662
3.47 0.05542400119082295 0.9890584306881861
3.48 0.06664926461289418 0.9919534631980502
3.49 0.0717921791161157 0.9867611273486809
3.5 0.06883950653642097 0.9891422708143673
3.51 0.07375324597245551 0.9873744842182957
3.52 0.07672501859025738 0.9879371856874696
3.53 0.08025484502374076 0.9886829431314419
3.54 0.08698774665589638 0.9900246541559425
3.55 0.09069899363572455 0.9850428152884055
3.56 0.09525052022454507 0.9889065621642308
3.57 0.10602369494376691 0.98804044107874
3.58 0.1089551829944875 0.9865683894491708
3.59 0.11068180436912001 0.9861973533383742
3.6 0.11645226999830856 0.9823909861967667
3.61 0.12043549499085661 0.9849167942294899
3.62 0.12227440085363911 0.9840849208365804
3.63 0.12519692787527195 0.9832775570514414
3.64 0.12902250923999503 0.9812506379163373
3.65 0.14118881946464756 0.9839450753895186
3.66 0.1444601576687947 0.9790454975320328
3.67 0.15274956349194782 0.9803603149850636
3.68 0.15428033108445846 0.976420285020586
3.69 0.1575395186399195 0.9753483431726531
3.7 0.16469609591590334 0.9838632691415827
3.71 0.16809516548480483 0.9783904976968364
3.72 0.1740433654130651 0.9748116179063229
3.73 0.1780571561474498 0.9770266618947505
3.74 0.1778130600038475 0.9725044922096328
3.75 0.18390754766385475 0.9727438076641128
3.76 0.18723457877709204 0.9689363516424317
3.77 0.19039687527339932 0.9728044168876773
3.78 0.19741341749342692 0.9700656442294274
3.79 0.20249665659186733 0.9738270776860917
3.8 0.20781085687987988 0.9719018240668884
3.81 0.2150637023042939 0.9696469257423014
3.82 0.21705636619344784 0.9691904795033082
3.83 0.2172990335988201 0.9633781936456366
3.84 0.21872572950994185 0.9701728079937149
3.85 0.2252764988456365 0.966924494692991
3.86 0.23198166526842243 0.9633347322388909
3.87 0.2350751479644021 0.9612684996825305
3.88 0.2416256754321631 0.9606631335913055
3.89 0.2458651306273975 0.9618205542349534
3.9 0.24944518026828352 0.9605722303306707
3.91 0.2565741575755335 0.9593952759852523
3.92 0.25867434842395126 0.9593757195085459
3.93 0.263621700213037 0.9578610461726875
3.94 0.2670750144453349 0.9560818683083722
3.95 0.2726079073632829 0.9560777963362916
3.96 0.2762907488079487 0.9502557599381158
3.97 0.2789338225427752 0.9507628878830078
3.98 0.28413910528070907 0.9486687776736401
3.99 0.28910384455860755 0.9472164224827341
4.0 0.2961095320658235 0.9473974968037147
