!Agilent Technologies,E8363C,MY49030273,A.09.42.18
!Agilent E8363C: A.09.42.18
!Date: Tuesday, May 03, 2022 03:56:45
!Correction: S11(Full 2 Port(1,2)) 
!S1P File: Measurement: S11:
!
!Created with skrf (http://scikit-rf.org).
# GHz S RI R 50.0 
!freq ReS11 ImS11
0.5 -0.0019271926592620467 -0.0059953940267150835
0.51 -0.0014319453847457782 -0.004276673547946858
0.52 -0.00024808261878227575 -0.0032161407492504943
0.53 -0.0011161654114071804 -0.0044811275452286015
0.54 -0.002059206712996534 -0.0029740468921020113
0.55 -0.001307797321875108 -0.003953987692580927
0.56 -0.0022804441947733216 -0.005134121094033939
0.57 0.000972233975948724 -0.0036890841475736126
0.58 0.0008582773717407523 -0.00424131417601832
0.59 -0.0005930302351219736 -0.005032216866920712
0.6 -0.0009302511574153599 -0.004494160520565719
0.61 -0.0010921656581975615 -0.004922260218960002
0.62 -0.0005627893447685284 -0.004134607478210178
0.63 -0.0009355203814534314 -0.0060220788550753605
0.64 -0.0022202025934798778 -0.004618282639599095
0.65 -0.0027300212044497497 -0.004366820602902677
0.66 -0.002678728779544767 -0.006167570916417281
0.67 -0.003323739504246595 -0.00539405749449337
0.68 -0.00041583357468953473 -0.005551259461298272
0.69 -0.0035533527750169877 -0.005685280183557318
0.7 -0.0019688196044433683 -0.004959388383029551
0.71 -0.0006911655934835617 -0.0032159200265150837
0.72 -0.001711146581772637 -0.004693524318674457
0.73 -0.000283442140322011 -0.005485429509596929
0.74 -0.001725756992546203 -0.007051651493761609
0.75 -0.0029535071408203404 -0.005925699423217909
0.76 -0.003445978959827824 -0.006486804010304243
0.77 -0.0022024894330578164 -0.006593603071774836
0.78 -0.00027192677067424233 -0.0071316657130557565
0.79 -0.0031557759036923635 -0.00639745571449972
0.8 -0.002232947106457768 -0.006575635993163183
0.81 -0.0022582092919179665 -0.006467468776712732
0.82 -0.0034324630004783424 -0.004606155526201623
0.83 -0.0042856635523890185 -0.005187151954844911
0.84 -0.003479880849797682 -0.003297044907797328
0.85 -0.0017968908603880503 -0.004186477900566917
0.86 -0.002738712348058972 -0.005674337170674772
0.87 -0.003897574519512343 -0.004610873188822661
0.88 -0.002916943808226667 -0.007674946909251593
0.89 -0.0037519048280397573 -0.00823153508386921
0.9 -0.00435830311043303 -0.005655847408114598
0.91 -0.004765253863010395 -0.005739064906794823
0.92 -0.003372565853878399 -0.005402895313172406
0.93 -0.004723453020229955 -0.005324096622143924
0.94 -0.003480841240112281 -0.007101945679447163
0.95 -0.0026252907494692715 -0.005020102481712012
0.96 -0.003340650057301745 -0.005276378880575203
0.97 -0.004603556245955703 -0.008287334427168202
0.98 -0.004960306946878532 -0.0056371343572403886
0.99 -0.005416714766780219 -0.0071079964410984825
1.0 -0.003951403332176175 -0.007875100144541474
1.01 -0.00485914042292355 -0.007388463799134529
1.02 -0.004407976683823109 -0.0077229956894971944
1.03 -0.004511555238859919 -0.0066504130344743435
1.04 -0.005117947734069946 -0.008493402219644586
1.05 -0.004257066742006143 -0.007667663136148269
1.06 -0.004213612458432596 -0.006900792448491706
1.07 -0.00404044772172839 -0.0068778001624630915
1.08 -0.004874182741782774 -0.00753449968414133
1.09 -0.003487216621690278 -0.008856207919015048
1.1 -0.00652567888793046 -0.006998276584365802
1.11 -0.006254202753916253 -0.00821968475090183
1.12 -0.005031152886352209 -0.0070064150091392816
1.13 -0.0057609239657469636 -0.00724486673098466
1.14 -0.005864459075343153 -0.007282499869006981
1.15 -0.004079555972197274 -0.007838798786143138
1.16 -0.0046149980567010244 -0.00807802213571196
1.17 -0.0058866716391248065 -0.007764519643989855
1.18 -0.005083994674649724 -0.005824079779837728
1.19 -0.00553930413393295 -0.007531226336547025
1.2 -0.006476584191744069 -0.00767291059627289
1.21 -0.007466293316367221 -0.007330323642111117
1.22 -0.0075671223100075005 -0.00850687839710165
1.23 -0.006364119572703741 -0.007149643069464588
1.24 -0.006693921451697037 -0.007977943206912983
1.25 -0.006244294852188001 -0.006726567332868295
1.26 -0.006518090072542126 -0.006824877860604757
1.27 -0.006023169238582543 -0.00722011567249971
1.28 -0.007140933063869388 -0.007480932995008462
1.29 -0.0070020975303499424 -0.007943857947230718
1.3 -0.0064789981566957065 -0.007800944457481903
1.31 -0.006523678499181583 -0.009046214882581003
1.32 -0.006865456244828038 -0.008755745360615458
1.33 -0.006516172027294033 -0.008757139621262629
1.34 -0.005382453711133168 -0.009021938220541198
1.35 -0.006919478859007408 -0.008763491395010137
1.36 -0.007193466877882069 -0.007003008282305107
1.37 -0.007330341339390914 -0.007824838426056253
1.38 -0.009000507879450755 -0.008152956848645263
1.39 -0.0062429667295408045 -0.005856446505138913
1.4 -0.007985275815811311 -0.00833002030032752
1.41 -0.00875842775451667 -0.007029944435323622
1.42 -0.00900626207254467 -0.008007530238564155
1.43 -0.00950171259163826 -0.008173695348180545
1.44 -0.008434447701507215 -0.007388447764223564
1.45 -0.007371899631536093 -0.010091779002599523
1.46 -0.010015075372212981 -0.01030051493979228
1.47 -0.00870050365874068 -0.008164628591873559
1.48 -0.007067059937936553 -0.007051572646875885
1.49 -0.007977182626031948 -0.008467108517220556
1.5 -0.00775872443565674 -0.007449478958573566
1.51 -0.008224712448381319 -0.007987904931514734
1.52 -0.008815055905200608 -0.010178370408781872
1.53 -0.010452759162213441 -0.008939199948788374
1.54 -0.010197804761405676 -0.009024616188876558
1.55 -0.008264397526855764 -0.009171159555859223
1.56 -0.008862175679077898 -0.009147886257582201
1.57 -0.008968105033800652 -0.00995568922968203
1.58 -0.007769207649888067 -0.007973499380575707
1.59 -0.00914115517588211 -0.007990222551838528
1.6 -0.009150731635576859 -0.007218414060965406
1.61 -0.009596329593098293 -0.007380377786283099
1.62 -0.010163551161454468 -0.009389834555668402
1.63 -0.00997272805789157 -0.008721723716453631
1.64 -0.011964127430167512 -0.009217298325523062
1.65 -0.012263489948692427 -0.010554678125248696
1.66 -0.011263931233039405 -0.009673250359972433
1.67 -0.01150230071443761 -0.009392614151662692
1.68 -0.009866917989898466 -0.008981072983895534
1.69 -0.011477977298395177 -0.009756820201355895
1.7 -0.010174361993419225 -0.008519903622457973
1.71 -0.010048666226339785 -0.006860932403135851
1.72 -0.012891955145808246 -0.008786727808337997
1.73 -0.0113397260342794 -0.008382370745477544
1.74 -0.011690667862269062 -0.006462643825349211
1.75 -0.011860388128235939 -0.010235697259810387
1.76 -0.01209608031898013 -0.009963926390213098
1.77 -0.011192006274811015 -0.009432753009084268
1.78 -0.010363409803859044 -0.009420777863396087
1.79 -0.012099051301793715 -0.009083064457282715
1.8 -0.012362997329199652 -0.009849177504896587
1.81 -0.011648601922093079 -0.00857549052442073
1.82 -0.013081048721649446 -0.009352017251160062
1.83 -0.013247286636864588 -0.00749927666138815
1.84 -0.013353807548347975 -0.007729705923011353
1.85 -0.013737431538737925 -0.00932609961049579
1.86 -0.0120526576409339 -0.008280085169493424
1.87 -0.014610835940336438 -0.010574492031707777
1.88 -0.00974478005866275 -0.009449813040248646
1.89 -0.012323551741907962 -0.008960531921555744
1.9 -0.014049389037328244 -0.008174369532266421
1.91 -0.011903676578843352 -0.010054232724127603
1.92 -0.013119879351900033 -0.008432819884864912
1.93 -0.013073421398951863 -0.006883551223570183
1.94 -0.01354560215361599 -0.007246447216567976
1.95 -0.013189308070034544 -0.007093187596345762
1.96 -0.015847896919850744 -0.010572614248724722
1.97 -0.014313917668988636 -0.010924194749032761
1.98 -0.012442431971249085 -0.00999375464719501
1.99 -0.01289617672266726 -0.007497736866570313
2.0 -0.01425709373412621 -0.006769508079560592
2.01 -0.013076011229144206 -0.007101871318409529
2.02 -0.015563284948091265 -0.00975271153324363
2.03 -0.014126744868524468 -0.007338857374495712
2.04 -0.014357265391710672 -0.008641574882563561
2.05 -0.01676214751076862 -0.008141578161184252
2.06 -0.016418970315283072 -0.009486605414638529
2.07 -0.014661782732017105 -0.009545302441109666
2.08 -0.014879993392862084 -0.008699964105511267
2.09 -0.013807229779020505 -0.010528312306427865
2.1 -0.015058081214040061 -0.010387562366515305
2.11 -0.015691989749870374 -0.009887549839389236
2.12 -0.014570686079689915 -0.007972395840416703
2.13 -0.0128378402659045 -0.008455969663028487
2.14 -0.015549772343935769 -0.00769921938167145
2.15 -0.016258661963342292 -0.009538064471842368
2.16 -0.016196326148507273 -0.005546650740599068
2.17 -0.015845378281623197 -0.010365205806120796
2.18 -0.015797103826491948 -0.01011541993869131
2.19 -0.01746912400732449 -0.006853610464804326
2.2 -0.016773988849002063 -0.009039712541646091
2.21 -0.014901879735690932 -0.009913637644633705
2.22 -0.016251127590198595 -0.008363086664719865
2.23 -0.015590879171566919 -0.008191627609844371
2.24 -0.0164210929941979 -0.00806585442041397
2.25 -0.01964257265776775 -0.0070526364160988005
2.26 -0.019242024438820123 -0.008543805859042637
2.27 -0.018953100121510965 -0.005222269028946043
2.28 -0.018167089914952108 -0.007581706896116676
2.29 -0.019884182632875252 -0.00979255973294364
2.3 -0.01492265793073003 -0.009035747040853208
2.31 -0.017534894038737498 -0.008576465539759208
2.32 -0.018427711077333944 -0.010370565600295279
2.33 -0.017767089938771137 -0.006880076237835828
2.34 -0.015661563659386347 -0.006383973654885831
2.35 -0.019133120063651424 -0.00698035760337644
2.36 -0.018361537188138516 -0.007016526760198893
2.37 -0.020148883678639255 -0.006009936905681126
2.38 -0.018919371579235136 -0.008478343698944442
2.39 -0.01950750135435683 -0.0077670874501585925
2.4 -0.020231217043947276 -0.009022747127571175
2.41 -0.018399555846966304 -0.009013674816818244
2.42 -0.01802396761648149 -0.008663242975983407
2.43 -0.018233977345461023 -0.006888097085785441
2.44 -0.01891808091932403 -0.007288181019431255
2.45 -0.01898395035999025 -0.00625177318797703
2.46 -0.018605484710660092 -0.005360837606065032
2.47 -0.02041307009024478 -0.005593276161806127
2.48 -0.021354953305845126 -0.006085848003025839
2.49 -0.019639682228824736 -0.008794602873792122
2.5 -0.02021784209305506 -0.008719354211442399
2.51 -0.020608993240716342 -0.006787640347285536
2.52 -0.018882413023831975 -0.007132870256689409
2.53 -0.018257778366262634 -0.0072431049674749216
2.54 -0.01825832782664274 -0.005793781939611336
2.55 -0.01805792294533967 -0.007909498492875915
2.56 -0.019461176300097218 -0.006573539470547616
2.57 -0.0196059286560369 -0.006707783974817921
2.58 -0.02070256865398449 -0.004574716342525809
2.59 -0.02176415260148128 -0.0067730634222545405
2.6 -0.02295493147988249 -0.005862066919198548
2.61 -0.022070471808087133 -0.008534723248295203
2.62 -0.02204059585026336 -0.0053535650196497395
2.63 -0.02075509090451156 -0.007377857921202247
2.64 -0.022174060960869563 -0.007426417208681566
2.65 -0.019690584850895174 -0.0056410315097357765
2.66 -0.01915855349229953 -0.005998230269955242
2.67 -0.021478741496805565 -0.005521612990632754
2.68 -0.022603764038778073 -0.0065057497394316
2.69 -0.022946318567417336 -0.0066171725984968295
2.7 -0.02238441988835237 -0.005841451497890873
2.71 -0.022205614298773886 -0.007380048100876707
2.72 -0.020966062311513812 -0.006023947290873982
2.73 -0.021637824982425332 -0.005964715732716923
2.74 -0.023640724486051583 -0.004879172784011696
2.75 -0.023191269329186397 -0.006558777731267651
2.76 -0.02229934738122954 -0.004917688587331717
2.77 -0.021875242526767792 -0.004615487137648256
2.78 -0.023167771775793152 -0.003875881266024503
2.79 -0.02282142905898858 -0.0052861096495147655
2.8 -0.023684140358606724 -0.00455312609788245
2.81 -0.02328228377893692 -0.004881176925726537
2.82 -0.023409735135079712 -0.0058804854633896985
2.83 -0.024187301413073858 -0.004746760983921993
2.84 -0.024247650492573995 -0.006562377239941283
2.85 -0.024371926782938983 -0.004512611191968592
2.86 -0.022475149929142502 -0.004171406058731698
2.87 -0.0217751640443962 -0.004352139116198828
2.88 -0.024385163463581088 -0.004007174430982745
2.89 -0.025263842987336645 -0.004477306575767166
2.9 -0.025639093751104843 -0.004955278457713124
2.91 -0.025074247628472185 -0.0033514315781724637
2.92 -0.027282094839308088 -0.0072895745015987765
2.93 -0.025190169847070745 -0.003527423046057
2.94 -0.025732829263965393 -0.005707621360792737
2.95 -0.02458915402052323 -0.0055760401847573995
2.96 -0.023813776923043786 -0.006442234570564935
2.97 -0.02440695998260528 -0.004967466863420062
2.98 -0.023833913368481563 -0.0026987531998338594
2.99 -0.025735925014142434 -0.0027454159297240627
3.0 -0.026090528634491527 -0.002212899520194208
3.01 -0.025328080711626278 -0.003788424227323625
3.02 -0.027224304040091196 -0.004268854497923694
3.03 -0.025549279991772388 -0.0029999583998781615
3.04 -0.026429511619928982 -0.002912710779668629
3.05 -0.025209800026272124 -0.004058091827740222
3.06 -0.02645605128337431 -0.004105949609305918
3.07 -0.02560683340231699 -0.0012527676424834687
3.08 -0.026443271142383276 -0.0019406738564821282
3.09 -0.025598762489567814 -8.822205921993473e-05
3.1 -0.026755102522228357 -0.0011186644889466316
3.11 -0.027279752599769388 -0.0009363095699171204
3.12 -0.027150041933948845 -0.0029993553504087983
3.13 -0.029067713131911005 -0.0010071283110226694
3.14 -0.02980297060209462 -0.0014771540473463639
3.15 -0.028617993159111472 -0.0037859645013685367
3.16 -0.02769704632591004 -0.0030871533697434616
3.17 -0.026463825695952802 -0.00268646467352186
3.18 -0.02652235561342261 -0.0036006763668336166
3.19 -0.02723271355218463 -0.0024870567523470727
3.2 -0.025615902594123014 -0.0005109814553113836
3.21 -0.02780187571995822 -0.0005981431385624944
3.22 -0.027466380846052768 -0.001014017866154023
3.23 -0.028154229770175704 0.000390636039973948
3.24 -0.02777213598089985 -0.0017513899656234548
3.25 -0.03065672325114071 -0.000998570025592646
3.26 -0.028734814675145534 -0.0035099744674741092
3.27 -0.02990950254599464 -0.0030619904372887813
3.28 -0.027383856980034788 -0.0025204835469314494
3.29 -0.02769405125635734 -0.0006792251183533126
3.3 -0.028653977075126087 0.00024084683656744365
3.31 -0.029764722896017008 0.0006451714795627884
3.32 -0.030589218508932228 0.0017931885948246206
3.33 -0.03129361506418457 -0.000950772906812207
3.34 -0.029580441230007703 0.0005238653376847983
3.35 -0.0314819248447283 -0.00208402266143488
3.36 -0.02999417811527154 -0.0003462280435042456
3.37 -0.028266446262393056 -0.0025820338710704797
3.38 -0.027772773462400265 -0.0018796605660594784
3.39 -0.028314675918781042 -0.0010101139263175801
3.4 -0.02904297975115003 -0.00018134557004533352
3.41 -0.028984109379753577 0.0014483770355257146
3.42 -0.02892561401510047 0.0004042638170890521
3.43 -0.029608567960498076 0.0019354072670553922
3.44 -0.030168217607377933 0.0010471185805319043
3.45 -0.03081714587500543 -0.0005381987569978899
3.46 -0.031262068203705695 -0.001542811938721746
3.47 -0.03151467202601102 0.0010506211034616972
3.48 -0.03032283871983318 -0.0003542665122769586
3.49 -0.029721649582432775 5.6803223337846824e-05
3.5 -0.031990279990244085 0.0020054650803719622
3.51 -0.03192809902088929 0.001427254368496459
3.52 -0.028822044132940903 0.0010601520946789981
3.53 -0.029343389323765387 0.0022181835701862497
3.54 -0.032112380725489775 0.00284968679045504
3.55 -0.032012782137288455 0.0019975514299726423
3.56 -0.030981462835727405 0.0028629680341513385
3.57 -0.03065176277730181 0.002303668917261564
3.58 -0.031068670576499882 0.0007291789229507305
3.59 -0.031794743918345705 0.0013404579617372122
3.6 -0.03129120521472868 0.00015065196140028882
3.61 -0.03183777482624536 0.002860568750608762
3.62 -0.031216360061488615 0.0009461800788208214
3.63 -0.03244626197841366 0.0036246208699765837
3.64 -0.03135726796915654 0.004374731073819817
3.65 -0.03324178710997869 0.0033289292409436947
3.66 -0.03156131483585844 0.004127599201020312
3.67 -0.03280005153335667 0.004698087188838705
3.68 -0.03203783800982333 0.002412209865880148
3.69 -0.03297104536861591 0.0048456370907442245
3.7 -0.033194085167206955 0.001967439939758511
3.71 -0.031078790689946432 0.002094933281417033
3.72 -0.03553683603557168 0.003970526515389827
3.73 -0.03190029352735375 0.004770777890591925
3.74 -0.03315579629556968 0.0052521958483113616
3.75 -0.031778297599080574 0.007785672787515026
3.76 -0.0352552321140362 0.006243271714137528
3.77 -0.033618872873005884 0.0036850269916506324
3.78 -0.03255671309981216 0.004855096645269998
3.79 -0.03589104063348696 0.0017240079795125362
3.8 -0.03286001346205909 0.002245183037788323
3.81 -0.034370864081154896 0.005756661474363345
3.82 -0.032988378305444294 0.0043565941926691455
3.83 -0.0311158537240942 0.0054096249198664625
3.84 -0.032479474770169534 0.004079428807769678
3.85 -0.03385754077560625 0.005061695125020069
3.86 -0.035264671372165 0.005802963805768538
3.87 -0.034177267851663105 0.006514318416167984
3.88 -0.0364306825633805 0.006098384324437821
3.89 -0.03525212964696607 0.005312566107194622
3.9 -0.0341995795001128 0.005465706113642317
3.91 -0.03539376984425864 0.0038066957798483718
3.92 -0.03267758853427443 0.004616824717794501
3.93 -0.03377348021661835 0.008102846610729037
3.94 -0.03258290761711966 0.008500153452312458
3.95 -0.03524294700125203 0.00920898710310623
3.96 -0.036054498303622354 0.008891912188892768
3.97 -0.03515981612263774 0.007841004762474974
3.98 -0.036102816452851696 0.00734735800029049
3.99 -0.03681914336803716 0.008045987331585775
4.0 -0.03583379247631962 0.007545819051180169
