!Agilent Technologies,E8363C,MY49030273,A.09.42.18
!Agilent E8363C: A.09.42.18
!Date: Tuesday, May 03, 2022 03:57:34
!Correction: S22(Full 2 Port(1,2)) 
!S1P File: Measurement: S22:
!
!Created with skrf (http://scikit-rf.org).
# GHz S RI R 50.0 
!freq ReS11 ImS11
0.5 -0.0010205301468056613 -0.004718799120611533
0.51 -0.002196581806285414 -0.0048504826883375
0.52 -0.0006622242518933385 -0.0046955925867822376
0.53 3.4180639771187824e-06 -0.006322697186295558
0.54 -0.0018314937990264912 -0.003886017697867965
0.55 -0.002062088006636174 -0.0005636329250731325
0.56 -0.0008749503308899838 -0.003940924389094762
0.57 -0.0008606149031817876 -0.0032489446796104145
0.58 -0.0017194262091235306 -0.0027373598266375136
0.59 -0.0010829198112802597 -0.003925027200992598
0.6 -0.00234527982735297 -0.004319897691878051
0.61 -0.0010937541984563086 -0.00662843445203882
0.62 -0.0018637903790326034 -0.006624039824181739
0.63 -0.0010565034414444941 -0.0045299304571917165
0.64 -0.0010883455554273496 -0.007489137529801165
0.65 -0.0033342490341619 -0.004648070393152872
0.66 -0.0013238269582364578 -0.00629326455727161
0.67 -0.0025559462882358865 -0.006105412124760812
0.68 -0.002742665598468032 -0.004814974981998866
0.69 6.583223527701406e-05 -0.006231008243007451
0.7 -0.002963426911158029 -0.004580397263600132
0.71 -0.0037303069586054134 -0.005742959807753427
0.72 -0.00434969580212056 -0.006452903057692989
0.73 -0.0038495043731338894 -0.008141928215022267
0.74 -0.003828343536724034 -0.005880669261355866
0.75 -0.0024009619564477947 -0.0072804642377019176
0.76 -0.0023725269235425643 -0.007095918157319186
0.77 -0.003999143619234257 -0.005540907704462533
0.78 -0.00290216183941439 -0.005705230772508247
0.79 -0.0006632558029579563 -0.004179535024741145
0.8 -0.0037879339133989154 -0.006325423990463704
0.81 -0.005413185630590166 -0.007659009260649192
0.82 -0.0037076633686591444 -0.005577952752900592
0.83 -0.0037868183032929996 -0.005279844236507329
0.84 -0.003851243439671428 -0.0077975735019203294
0.85 -0.0014181156477457994 -0.004483016724572917
0.86 -0.004796230146776825 -0.006670733598426199
0.87 -0.0025644195276630123 -0.0077127147821787
0.88 -0.0031006859892735834 -0.007596536683052733
0.89 -0.004592141939101128 -0.004566354757663073
0.9 -0.004543102680108739 -0.007029884939165362
0.91 -0.004875886304433857 -0.007001177208940589
0.92 -0.003944234949002187 -0.006405985250993569
0.93 -0.007782928690805894 -0.007828897198322048
0.94 -0.0053843615815443715 -0.007917489801675849
0.95 -0.0036550443757884465 -0.008121078182103322
0.96 -0.003875445754419524 -0.007513659715313532
0.97 -0.00634481005421162 -0.0075904373164400575
0.98 -0.005268942338535507 -0.009221822658171987
0.99 -0.0035175776348688958 -0.008646505756070632
1.0 -0.004792945912727559 -0.008076547235060037
1.01 -0.00459932740208872 -0.008757909778371114
1.02 -0.004843035817655205 -0.007787005728537184
1.03 -0.006058083815123988 -0.007512944588912737
1.04 -0.005182201914379564 -0.006562001386623232
1.05 -0.006353439768344839 -0.008235936655107802
1.06 -0.004758803016138825 -0.009181148007023394
1.07 -0.003039697804284559 -0.009506167338758508
1.08 -0.005139769470575945 -0.009227674781106157
1.09 -0.005922151939276457 -0.009560338018403832
1.1 -0.0028926274351919728 -0.008222218922099813
1.11 -0.0059549852415999695 -0.005830672145086434
1.12 -0.0057851729518422264 -0.007464854782040323
1.13 -0.0062362375632007165 -0.00613002403364353
1.14 -0.0070896106353378835 -0.0077509851842448695
1.15 -0.0071688078812656725 -0.008969939468510746
1.16 -0.006707671588343707 -0.008056126791306172
1.17 -0.008660761357105367 -0.010209102804372188
1.18 -0.005639324074016252 -0.009403759356411901
1.19 -0.007416430207191694 -0.009839169747153119
1.2 -0.0063413852859305645 -0.011154143071306086
1.21 -0.007392125670187288 -0.008049300697490163
1.22 -0.0076014942803953826 -0.007694738672174794
1.23 -0.007289275313896344 -0.008800861267629124
1.24 -0.008475441770897728 -0.007926194930278494
1.25 -0.00907026938646436 -0.010970541467192873
1.26 -0.006293131818149798 -0.00873549409257749
1.27 -0.008480786826508902 -0.009417948990183566
1.28 -0.010237477541746674 -0.009918254098217172
1.29 -0.011309007246287738 -0.010594385330295563
1.3 -0.007877881493467407 -0.008759949500588893
1.31 -0.008573174251588912 -0.010519112813145812
1.32 -0.009228176730610351 -0.008518991793497329
1.33 -0.008291833189695688 -0.010813840675730815
1.34 -0.008178594794439916 -0.010749053865634088
1.35 -0.007520273165053425 -0.009125794665212876
1.36 -0.007891159528254173 -0.009842322600994134
1.37 -0.006562685153978956 -0.009678800306424904
1.38 -0.00811794705601945 -0.010186137685481392
1.39 -0.008233675087705507 -0.009947546144765233
1.4 -0.008385468826329453 -0.011550789761135574
1.41 -0.008811971820164018 -0.010820517912095682
1.42 -0.008189561396150494 -0.009098418145413659
1.43 -0.008647344053113303 -0.009232113985751076
1.44 -0.009014185125467927 -0.008891655973784655
1.45 -0.010220615431493657 -0.010185966305030434
1.46 -0.00827831661945147 -0.00749022486392526
1.47 -0.008816528825020589 -0.009521424515823993
1.48 -0.008202939948827561 -0.00947148976029681
1.49 -0.013025637602944163 -0.010467213720775652
1.5 -0.011048439741653437 -0.008420558769875526
1.51 -0.0106631600750862 -0.009724397544294805
1.52 -0.009337119022340828 -0.010379586013189834
1.53 -0.01087903014365782 -0.009083100612484275
1.54 -0.010100214721124252 -0.012117971767185568
1.55 -0.009992227121012767 -0.009397391984717764
1.56 -0.011375820664014262 -0.00892909900136948
1.57 -0.012065525874680221 -0.009868457491710923
1.58 -0.011783419047734441 -0.009443060060150159
1.59 -0.012879872987344245 -0.010796413830271715
1.6 -0.012515835747561764 -0.011142218650984614
1.61 -0.013558574066724153 -0.011577957956353331
1.62 -0.011663267422267377 -0.01408981425442392
1.63 -0.0123307821390314 -0.010795136409295324
1.64 -0.009679972791311681 -0.010700659307244004
1.65 -0.011670602363732593 -0.011427373090061893
1.66 -0.011162287669205729 -0.00963115062468791
1.67 -0.014390618450114875 -0.010792420771952315
1.68 -0.013428091549131754 -0.011464404693758125
1.69 -0.012110371621152896 -0.011697766803722228
1.7 -0.012466260100600087 -0.00989727522570577
1.71 -0.013190478177776962 -0.011260162309888912
1.72 -0.013276798780587825 -0.012855829221339668
1.73 -0.014143546863996293 -0.01193551970474635
1.74 -0.013192789347715067 -0.008183266220921975
1.75 -0.01386663976349795 -0.010313698318032903
1.76 -0.013051014501625787 -0.008874256114324795
1.77 -0.01331444772899431 -0.011396832890538841
1.78 -0.014965198819039228 -0.013262580076371015
1.79 -0.01433208816503051 -0.011466501362739153
1.8 -0.016767217085990903 -0.010506117550257675
1.81 -0.015221945944076743 -0.011414347231580482
1.82 -0.01455208164685902 -0.01125745345217476
1.83 -0.016654856260210453 -0.010395957162001934
1.84 -0.015409372054725121 -0.012015876678883961
1.85 -0.014233153655171206 -0.011049484919747306
1.86 -0.014557056730465385 -0.009433010241376051
1.87 -0.0154234926920586 -0.011001373517331155
1.88 -0.016450905828106335 -0.009326190537929895
1.89 -0.015313022984422789 -0.01302110623679718
1.9 -0.014371026132732194 -0.009379301835292269
1.91 -0.017329969605489222 -0.012798492754325073
1.92 -0.017266409794281682 -0.011835414139778363
1.93 -0.018181960789353795 -0.01196373218335888
1.94 -0.01603120125380252 -0.010781585373576343
1.95 -0.01782647360574992 -0.011425667847088577
1.96 -0.013775944425139783 -0.012781399288493986
1.97 -0.015485390563641267 -0.014301977348117115
1.98 -0.015039380114496612 -0.014797084833945253
1.99 -0.016283583494641755 -0.011890313710235766
2.0 -0.016266813793841397 -0.01110943178237734
2.01 -0.01713901919738249 -0.012151387949437872
2.02 -0.015156020368203045 -0.009902456592326258
2.03 -0.018695104383896655 -0.012307854738788303
2.04 -0.01733154485330865 -0.012267703308735223
2.05 -0.0174566583387221 -0.011844277390043616
2.06 -0.015812438517180213 -0.011199082691851322
2.07 -0.01830074070105012 -0.012517290277184873
2.08 -0.017844906266683724 -0.011069782869479242
2.09 -0.01839294451266586 -0.007129723505487684
2.1 -0.019043893460732386 -0.012038265909811958
2.11 -0.014753821323760205 -0.011856039950882214
2.12 -0.01880193703097786 -0.010754001174283837
2.13 -0.020001989094623765 -0.012836025683261825
2.14 -0.01913168201487549 -0.010994946057798613
2.15 -0.018397622641471992 -0.012000792830245438
2.16 -0.020325923268012813 -0.012055705512149207
2.17 -0.017772586554975236 -0.012012630758133178
2.18 -0.014956943455907312 -0.011786350748318308
2.19 -0.01729067491869595 -0.01143187587961252
2.2 -0.01993461576012496 -0.009873199936591654
2.21 -0.018011880052556443 -0.009990174367076428
2.22 -0.01608031175329564 -0.009414717695260564
2.23 -0.019590554919039948 -0.012425220725208335
2.24 -0.018992785687178458 -0.012895771128799985
2.25 -0.02229991877306823 -0.012287379930947294
2.26 -0.019900328912351318 -0.012134461296597157
2.27 -0.018672508551329837 -0.010963771564132335
2.28 -0.019894692440118992 -0.011376235480730496
2.29 -0.020191636067029006 -0.01331138042015876
2.3 -0.020237350349938777 -0.009609517704395915
2.31 -0.020324430021756303 -0.011164171856308526
2.32 -0.021863390981603142 -0.012036749621716773
2.33 -0.01964231530329928 -0.009241772118185495
2.34 -0.02030344323844105 -0.009879915652311654
2.35 -0.02183014177926567 -0.011475613682374026
2.36 -0.019557201352825484 -0.010295830305267522
2.37 -0.02147869421842391 -0.010243698900130924
2.38 -0.020839422266524455 -0.010847904302166004
2.39 -0.018526127812666625 -0.012194776694711966
2.4 -0.02104760639650013 -0.010874905293725347
2.41 -0.0203852892551636 -0.010036051871934952
2.42 -0.019438389207258704 -0.009665182740471335
2.43 -0.023468384184743476 -0.008265878656122043
2.44 -0.02251159744322075 -0.012877154767435041
2.45 -0.023566790585763397 -0.010508018233515605
2.46 -0.022941322235222404 -0.012939724700145105
2.47 -0.023218343803919312 -0.012103561163494071
2.48 -0.023065742704925302 -0.011992261536648995
2.49 -0.02131783900298308 -0.012038810642264513
2.5 -0.022939924559219005 -0.012935523758831705
2.51 -0.022237024301464087 -0.012674144696770579
2.52 -0.022637361813953084 -0.011894636007423635
2.53 -0.022894587796831303 -0.01152956148594102
2.54 -0.024026427633576555 -0.011012216518162012
2.55 -0.025011272783540178 -0.010369558449427562
2.56 -0.022938818877762755 -0.009308544469312226
2.57 -0.02496845095235644 -0.010282310953701728
2.58 -0.022317001154062658 -0.011905495027839419
2.59 -0.02341232784742158 -0.012836742678560118
2.6 -0.022485221375155694 -0.012259559581292951
2.61 -0.02310599312209092 -0.01004773936273673
2.62 -0.021288814605141218 -0.01109185018101913
2.63 -0.02318293985127028 -0.010840419124789707
2.64 -0.023795846550543003 -0.009560652076345698
2.65 -0.025074055339876694 -0.00730313163235025
2.66 -0.026858860105517156 -0.00877111814829384
2.67 -0.026461776061029816 -0.008827325814022822
2.68 -0.02487617089170308 -0.009922488411270332
2.69 -0.023649392942490296 -0.01095253206270675
2.7 -0.025488283899678842 -0.01130990935066672
2.71 -0.026048890416985663 -0.012110212445521545
2.72 -0.025530891188779364 -0.011921433032741752
2.73 -0.025465852562137105 -0.008381527931300582
2.74 -0.02449619587852775 -0.011402845019501296
2.75 -0.026428458552931206 -0.00825769880158714
2.76 -0.027170813044434947 -0.006251225867354546
2.77 -0.02657933102107373 -0.009828130700495843
2.78 -0.02722896802762509 -0.009202629781384091
2.79 -0.026263739777551358 -0.009540645611423966
2.8 -0.022786181935368664 -0.009646572408899035
2.81 -0.024079300046411053 -0.01197996291710353
2.82 -0.028039115500622516 -0.009614474517456706
2.83 -0.02235837467554197 -0.008510372102641798
2.84 -0.025809301752723213 -0.008999445832025055
2.85 -0.02536339689379063 -0.007412179635454455
2.86 -0.025619064733012113 -0.007752713203257841
2.87 -0.027082813155963083 -0.008190827637721262
2.88 -0.027994626835927967 -0.010721863724162346
2.89 -0.026618797963576586 -0.00882999582920835
2.9 -0.02678908202585632 -0.0067012605952643835
2.91 -0.027106464139047198 -0.008075436141720824
2.92 -0.026414600886220788 -0.007554735232867517
2.93 -0.025149094490104683 -0.009987249095330756
2.94 -0.02549118833053575 -0.00738475849524784
2.95 -0.026387505632261474 -0.0070581768318839526
2.96 -0.025874103628981786 -0.006157082515017744
2.97 -0.02727375433722837 -0.006851389309901013
2.98 -0.028334417180262774 -0.0053255958529414785
2.99 -0.029482728336738526 -0.006615748653881318
3.0 -0.029768393671022717 -0.007746633598218992
3.01 -0.029538786040554616 -0.006154129674527455
3.02 -0.029033699202493466 -0.010731308800214391
3.03 -0.02953994772492835 -0.009334373103980676
3.04 -0.027861153635596325 -0.008161899089861322
3.05 -0.028494390809099015 -0.006455111225445113
3.06 -0.02835606336189184 -0.005772018234282217
3.07 -0.028360436971208852 -0.002119923223665613
3.08 -0.027826432127232514 -0.0046511465392170635
3.09 -0.028957911349519097 -0.003622487022427158
3.1 -0.030630573317577944 -0.006847508220962166
3.11 -0.029219560293606305 -0.006490102039312372
3.12 -0.029094233186073362 -0.007307056958958601
3.13 -0.03027704164977739 -0.007646299101431303
3.14 -0.02802977543990279 -0.0058102713793351714
3.15 -0.02814903009760416 -0.00522518903559192
3.16 -0.030084938605121167 -0.003697446498058899
3.17 -0.028223200685488756 -0.0045187832274360155
3.18 -0.028276076691590928 -0.0019275342719346383
3.19 -0.0297159971433335 -0.0027014771056567527
3.2 -0.03077448882043949 -0.0030318741054002024
3.21 -0.03111600107882354 -0.004447629694309398
3.22 -0.03227929674558936 -0.004964068194764436
3.23 -0.03171536071944597 -0.004405118445819653
3.24 -0.031635014007231586 -0.006615019040605369
3.25 -0.0313534530687175 -0.004254070167461259
3.26 -0.030339105260197195 -0.00532296889156383
3.27 -0.031077329940524246 -0.001350659674698277
3.28 -0.02872931991655992 -0.004065829639692703
3.29 -0.030684849989213444 -0.0011347780256226244
3.3 -0.03240635066368784 -0.004293245348254447
3.31 -0.032001975179974364 -0.0033717244222668205
3.32 -0.033739836364679886 -0.005090573533971814
3.33 -0.032793944610442674 -0.0033080963803983334
3.34 -0.034445223373461155 -0.0036140414390779334
3.35 -0.03178996620213817 -0.005932786303409226
3.36 -0.03131219764545007 -0.004005450570303553
3.37 -0.02772266186774896 -0.003971858905850528
3.38 -0.03132636079555992 0.0001366908668754014
3.39 -0.03272995544815558 -0.003132329421262601
3.4 -0.034214316358080886 -0.0002517930711087963
3.41 -0.033374381635274106 -0.00023893731702675396
3.42 -0.03378856303874277 -0.0017137545857054612
3.43 -0.03373625989091701 -0.001854021356700801
3.44 -0.034494849384552724 -0.002519591217590729
3.45 -0.03270971799746081 -0.0016925868586119021
3.46 -0.031851254652599394 -0.00412366831388645
3.47 -0.031158965024200687 -0.002114986188847651
3.48 -0.033356810029799316 -0.0015337204909959832
3.49 -0.031806474812091895 -0.003022116129407155
3.5 -0.033886112082856065 0.0009046057220553196
3.51 -0.031442775198545894 -0.0008652656452787831
3.52 -0.03293488955366798 0.0007029448464377301
3.53 -0.03521719915236022 -0.0003946463797257849
3.54 -0.03456188861021784 -0.0012197287356561974
3.55 -0.03672859659043081 -0.0007711432950060258
3.56 -0.033278268559534835 -0.0013691535054023876
3.57 -0.03270914578724564 -0.0013057632596691915
3.58 -0.03171778950008986 -0.0026100121695034665
3.59 -0.03234178514961713 -0.0013218792441199992
3.6 -0.03221506193487407 -0.0008025713560627214
3.61 -0.034168757768581935 0.002060469505613974
3.62 -0.034988368560015394 0.0007887335432508739
3.63 -0.03552195569116625 0.0030703300352094664
3.64 -0.03541229988749746 0.003437267457407734
3.65 -0.03310295753795037 -0.0016682581973560093
3.66 -0.0338808844425434 0.0006846650304089745
3.67 -0.03467188633129361 -0.0007002836321961263
3.68 -0.03520944208262272 0.0002845332605859535
3.69 -0.03235313351018192 0.0021648426437294527
3.7 -0.032412452118019394 0.0033624640430857068
3.71 -0.03295731250004041 0.0037600627567866375
3.72 -0.033241525011492024 0.006434961515326231
3.73 -0.035752456322040764 0.0031469092086104334
3.74 -0.036198887950518746 0.005582253237239702
3.75 -0.03456169430122553 0.0043268759118165225
3.76 -0.0365997004277209 0.002699325586724931
3.77 -0.03567319540460638 0.004552988623017201
3.78 -0.036130377386924185 0.0025236408717617047
3.79 -0.03391712669213001 0.0016808453282102665
3.8 -0.03176479131377235 0.004796594754654048
3.81 -0.03392570692145286 0.005311116240780821
3.82 -0.03414692185459903 0.00645859210700413
3.83 -0.038623165205778145 0.008203551019302927
3.84 -0.037513355622632506 0.00798646285520063
3.85 -0.037186365704506924 0.005814662171530299
3.86 -0.0367833417988121 0.006169069359557356
3.87 -0.03645268870618604 0.00358504059508944
3.88 -0.039067544380385774 0.005676442843136207
3.89 -0.037483653500967 0.0052703009650241
3.9 -0.03754338530472279 0.0029825980083962983
3.91 -0.03622768682645401 0.005170175975545342
3.92 -0.03688410535006498 0.005856960242268139
3.93 -0.03262871279020426 0.008029188150866621
3.94 -0.036635971308306634 0.007236433203206553
3.95 -0.03589566247195441 0.007434873464678431
3.96 -0.03800427208337237 0.008043989428792829
3.97 -0.037642648716244204 0.008952121946186182
3.98 -0.03950753849392682 0.008831597022629265
3.99 -0.037812678984766875 0.007634151605731594
4.0 -0.034053386287596146 0.00647608784332069
