!Agilent Technologies,E8363C,MY49030273,A.09.42.18
!Agilent E8363C: A.09.42.18
!Date: Tuesday, May 03, 2022 03:56:08
!Correction: S22(Full 2 Port(1,2)) 
!S1P File: Measurement: S22:
!
!Created with skrf (http://scikit-rf.org).
# GHz S RI R 50.0 
!freq ReS11 ImS11
0.5 0.9697421184177417 -0.22565749592667098
0.51 0.973522570010906 -0.23214282074883702
0.52 0.9672959545232016 -0.2372958166058887
0.53 0.9665753486044873 -0.2402927469864919
0.54 0.9694473305666229 -0.24869389685270946
0.55 0.9704508710579139 -0.253232754396082
0.56 0.9663600600615547 -0.2574696594620401
0.57 0.9631327371117142 -0.2637777403712731
0.58 0.9656776387057688 -0.2667258973662925
0.59 0.9646470502206973 -0.2696002330787926
0.6 0.9608807821220307 -0.27792870948945303
0.61 0.9604984358872198 -0.28218260912438764
0.62 0.9609707787787389 -0.2839963525872642
0.63 0.9590937105992843 -0.2894433641606947
0.64 0.9594004074842521 -0.28906321171186905
0.65 0.9536371423343708 -0.2948549361044559
0.66 0.9537983121512005 -0.2971168978680806
0.67 0.9534276785458661 -0.3063287882846014
0.68 0.9470665462317963 -0.31201809831830696
0.69 0.9468416259648815 -0.31596578012489174
0.7 0.946869787309365 -0.31841184090465735
0.71 0.9465880381463394 -0.32601800909079015
0.72 0.9469476250911492 -0.3276745056039306
0.73 0.9396960748255276 -0.33242650190263
0.74 0.9444880912648425 -0.3336485308636241
0.75 0.9367086909724743 -0.3396151775342873
0.76 0.9361061795520029 -0.34388805689978946
0.77 0.9342074662978961 -0.3522955881828064
0.78 0.9380803099911345 -0.357575746370846
0.79 0.9371980420470154 -0.3575805189669111
0.8 0.9353015866723864 -0.3564367121861696
0.81 0.9255624769428986 -0.36288637364609144
0.82 0.9278120820701004 -0.3697278594578654
0.83 0.9260976080463779 -0.3756344220181991
0.84 0.9243570300615572 -0.37632432381846004
0.85 0.9210070318190529 -0.3828942009039852
0.86 0.9222857556967512 -0.3839431801410038
0.87 0.9219457865192673 -0.39269868725246104
0.88 0.9152476345113799 -0.39617903448751984
0.89 0.9135530829410017 -0.4010348467164599
0.9 0.9146281708044992 -0.4059541416840996
0.91 0.9109104138708387 -0.40585808121732164
0.92 0.9165555863211263 -0.4099579990488143
0.93 0.9069938356188663 -0.4159569361764011
0.94 0.9053877684807982 -0.42515487487728415
0.95 0.9035800595570193 -0.42489665642676794
0.96 0.9006561854405865 -0.4304191371047643
0.97 0.9027516730584526 -0.4332036431847032
0.98 0.8975267981330417 -0.43682503775018844
0.99 0.8945535496244413 -0.44247610856787034
1.0 0.894187382661656 -0.4450890327572429
1.01 0.8889185439241925 -0.45148685256523624
1.02 0.890708208980964 -0.45419380736713544
1.03 0.8880321259605544 -0.46089352414891377
1.04 0.8886356864007617 -0.46046626570867916
1.05 0.883843117993206 -0.46594634048406675
1.06 0.8781737108612117 -0.4687717519647453
1.07 0.8803466242756869 -0.4778231323908452
1.08 0.8803181771477372 -0.4777083483524488
1.09 0.8734194182810775 -0.48423693097620335
1.1 0.874210917504477 -0.4887750169301335
1.11 0.871682998186872 -0.49003899507454285
1.12 0.8656814129859411 -0.4957443995220897
1.13 0.8649046343073936 -0.4998685555444949
1.14 0.8628194459276659 -0.5049508202619464
1.15 0.8605390475863222 -0.5072472837791224
1.16 0.8564206693828114 -0.511928426399259
1.17 0.8582031167942971 -0.5150421086918578
1.18 0.8538996242614958 -0.5190417981841299
1.19 0.8515225058611758 -0.5227278066857856
1.2 0.8460367891018276 -0.5256373923390076
1.21 0.8478978806972077 -0.5320499984697489
1.22 0.8456872700485076 -0.5379142422685416
1.23 0.839758799543894 -0.5365232094128303
1.24 0.8374643570156266 -0.5411176272258476
1.25 0.8378183258537177 -0.5428478308758374
1.26 0.8346991809728437 -0.550895659136294
1.27 0.8346217264984104 -0.5539183036633175
1.28 0.8278754913118357 -0.5581829945855368
1.29 0.8300606061585368 -0.5643496686500591
1.3 0.8245217066304683 -0.5660547473614388
1.31 0.8172485374599672 -0.5712176091464256
1.32 0.8173689145598324 -0.5741104724096041
1.33 0.8127316910247662 -0.5763151045444991
1.34 0.813512675070705 -0.5854167449423812
1.35 0.8083784334578112 -0.5854758182447137
1.36 0.8083441283586256 -0.5907030463631564
1.37 0.8071122579720575 -0.5941737399208086
1.38 0.8023451708812948 -0.5947413938039217
1.39 0.8036414734528323 -0.601152285252644
1.4 0.7973468257993293 -0.6021016186342282
1.41 0.7978642702607401 -0.6043984731898637
1.42 0.792926787889713 -0.6098813760445517
1.43 0.7879982876953961 -0.6131107195952143
1.44 0.7838693835364337 -0.6183422490160343
1.45 0.7809189791352154 -0.6220357807158367
1.46 0.780793037163624 -0.6252343095254844
1.47 0.7752147375814675 -0.6281859820853563
1.48 0.7733006973811352 -0.6313547613091145
1.49 0.7757046427794873 -0.6373900000143119
1.5 0.7689723423402683 -0.6359009069930651
1.51 0.7650248284247219 -0.6464970104056121
1.52 0.762769301092562 -0.6453440689986011
1.53 0.7606013536625901 -0.6494050340786905
1.54 0.7566934907532974 -0.6525389298011107
1.55 0.7503920671243004 -0.6574639220666584
1.56 0.7471398928746026 -0.6636586326799134
1.57 0.745376658881367 -0.6666115309731343
1.58 0.7420423290018244 -0.670107263938411
1.59 0.740160601990421 -0.673545301242452
1.6 0.73872995858062 -0.6745569040966364
1.61 0.7356488975256724 -0.6817813662691231
1.62 0.7301193178455813 -0.6842137296202393
1.63 0.728789659053952 -0.6866143882831488
1.64 0.7236483854353426 -0.6874185468785595
1.65 0.7188268038566246 -0.6918801689265888
1.66 0.7189782501772108 -0.6961563326246389
1.67 0.7157068439687351 -0.6984548211033386
1.68 0.7126306680117958 -0.7045031741163569
1.69 0.7064109512323308 -0.7039643458569996
1.7 0.7033497836647868 -0.710039848004888
1.71 0.7035900486224289 -0.7133507426198915
1.72 0.696580861909411 -0.715747091894236
1.73 0.6987643960843799 -0.7158662461455121
1.74 0.6928143811363608 -0.7208964762248171
1.75 0.6855880403081458 -0.7236148404841055
1.76 0.6893072483220528 -0.7282243003856864
1.77 0.6826964514532925 -0.7293332150570861
1.78 0.6781682644530461 -0.7385528335843689
1.79 0.6741946952134942 -0.737778779794116
1.8 0.6694016224404196 -0.7412599968476533
1.81 0.6663362717068597 -0.7483541858371096
1.82 0.6622247798701504 -0.7492201257136871
1.83 0.6514029236053795 -0.7461936708425911
1.84 0.6582000985224565 -0.7580034486649204
1.85 0.6533186631305018 -0.7607742077559335
1.86 0.6481526308166956 -0.7630928061129547
1.87 0.6455312691876879 -0.7679628858047954
1.88 0.6404044060240189 -0.7656609677128492
1.89 0.6416369779102862 -0.7691155643729033
1.9 0.6334228980748083 -0.7747375476233079
1.91 0.6316224223434623 -0.7773502166233341
1.92 0.6297542031128145 -0.7811864358433812
1.93 0.6249255041128454 -0.7837776685398232
1.94 0.6183796690006956 -0.7863328970669824
1.95 0.6119241637807121 -0.7881259126917821
1.96 0.6112165745656779 -0.7889502831163975
1.97 0.609796532275887 -0.7906915942370925
1.98 0.6087410634360458 -0.7929085036584851
1.99 0.6000941806070993 -0.7973420696506842
2.0 0.5987648483727622 -0.7994063515767585
2.01 0.593712367298688 -0.8025092094800497
2.02 0.5897125599630799 -0.8042795916060729
2.03 0.5894271903918874 -0.8080822437093249
2.04 0.5832134465209603 -0.8120917692200667
2.05 0.5780719775105234 -0.8137550292979728
2.06 0.5743588621042718 -0.8157933108710209
2.07 0.5753906738071061 -0.8211845259712361
2.08 0.5674366708493508 -0.8253200302007668
2.09 0.5609492616493372 -0.8245148547043345
2.1 0.5642867282825914 -0.8253837641094163
2.11 0.552879400499034 -0.832720453582064
2.12 0.5493128469090289 -0.8338394564695015
2.13 0.5485760194821311 -0.8412617753851099
2.14 0.5468344075789081 -0.8393021858681213
2.15 0.5385355737378735 -0.8423682052338959
2.16 0.5336867358902054 -0.8438839978244906
2.17 0.5290203627389911 -0.8468133623406182
2.18 0.527009502312815 -0.84672274961436
2.19 0.5260474206560808 -0.8483154216942863
2.2 0.5212999870306552 -0.8557978980930485
2.21 0.5165516424703125 -0.8576586603200912
2.22 0.5169362846114037 -0.8575797254841587
2.23 0.5088801419298751 -0.8636713518323427
2.24 0.5032112482141256 -0.8617708084098931
2.25 0.5002064700369203 -0.8693058836857908
2.26 0.4978628595532593 -0.8692656554149764
2.27 0.4898219777330205 -0.8695876467993497
2.28 0.48864054829482134 -0.8713919828938578
2.29 0.4848876731528138 -0.8739814195476092
2.3 0.4797289605599363 -0.8777034503795791
2.31 0.474520198291237 -0.8768504336408967
2.32 0.4758106657300516 -0.8786515653309155
2.33 0.4694787517519958 -0.8817943211000201
2.34 0.46522013274048946 -0.8871752593325974
2.35 0.4572189108727325 -0.888508347046077
2.36 0.463217512625801 -0.8918479772637857
2.37 0.4530475141643598 -0.8939226225552088
2.38 0.4492940979641917 -0.8953587820237676
2.39 0.4467858883398756 -0.8891807686793465
2.4 0.4381634105611023 -0.9033041723351043
2.41 0.4394898913934248 -0.8976714953961289
2.42 0.4297798854119926 -0.9057445507465061
2.43 0.4246351659190484 -0.900729363481242
2.44 0.41791465819063317 -0.9071641697451573
2.45 0.4169440433627014 -0.9104109888180505
2.46 0.41134761696881034 -0.9083828243091113
2.47 0.40379527642360225 -0.9129977008078677
2.48 0.40687420726821905 -0.916236828342646
2.49 0.40006475584198864 -0.9190725543302982
2.5 0.3929396675083236 -0.9175407069063288
2.51 0.39185141653848676 -0.9178910225418895
2.52 0.3899024960279775 -0.9219566475508142
2.53 0.38775262044286746 -0.9217190499835638
2.54 0.38160200669890965 -0.9242814730814917
2.55 0.37151039422691234 -0.9282978895423428
2.56 0.3696734956212864 -0.9266552954828117
2.57 0.363776185103921 -0.9326275667331458
2.58 0.3585340594370376 -0.9361831869849159
2.59 0.35579123756512965 -0.9340320621892787
2.6 0.35452578051207423 -0.935128232371716
2.61 0.3464484083972076 -0.934745019517872
2.62 0.3391414754957159 -0.9390581983450225
2.63 0.3364729430162107 -0.9390406925266391
2.64 0.33491259028565046 -0.9399684423072062
2.65 0.32787308939776133 -0.9424171317918699
2.66 0.3237262060498488 -0.9475826345982388
2.67 0.3219067517258122 -0.9486922701069055
2.68 0.3148698093041178 -0.9480597202566406
2.69 0.3068578947887173 -0.9507187344272722
2.7 0.30328801358536117 -0.9512804693114025
2.71 0.3025258494029853 -0.9494267680112238
2.72 0.2976362740387935 -0.9568742277917948
2.73 0.29276696512395806 -0.9559138115584862
2.74 0.29178669653432476 -0.9562102659211431
2.75 0.2868442507959835 -0.9581737861418171
2.76 0.27949359507300264 -0.9606982632934419
2.77 0.27113082122381466 -0.959341129645727
2.78 0.27091659020714504 -0.9627275634279627
2.79 0.26735932714247373 -0.961625989496234
2.8 0.26227047143176985 -0.9656470399960517
2.81 0.26058718422556165 -0.9654126412384415
2.82 0.25483953594534947 -0.9674356867870268
2.83 0.2506547736144985 -0.9673097164547464
2.84 0.24601424578778683 -0.9679960619412935
2.85 0.2405690801942533 -0.970919319721967
2.86 0.23700685271592775 -0.974538402365508
2.87 0.22920005341590938 -0.9745279558498715
2.88 0.22872793815122375 -0.9747827785604498
2.89 0.22445830571352107 -0.9747498585244172
2.9 0.21922525569068876 -0.9748766733655448
2.91 0.21245987517497525 -0.9779516748924258
2.92 0.20878107409996285 -0.9772959593198991
2.93 0.2056893150328801 -0.9803795769498614
2.94 0.20155976599481426 -0.9802612590858142
2.95 0.19781689325599497 -0.9756021560784497
2.96 0.19112606001014912 -0.9823654251905259
2.97 0.1849585766852929 -0.9864634793973486
2.98 0.17742809311654384 -0.9827408528989718
2.99 0.17101935620417702 -0.9831564138616466
3.0 0.17172160287739777 -0.9873251581312177
3.01 0.16241234762801213 -0.9848022108316459
3.02 0.1580301621065565 -0.9908765467661537
3.03 0.15415497980119622 -0.9897106892455261
3.04 0.1502794595710352 -0.9858290517134418
3.05 0.14784473587023395 -0.9886585077279477
3.06 0.14228925941880946 -0.9901426267421498
3.07 0.14030548511615987 -0.9910804214719924
3.08 0.1322631264127116 -0.9931731367329842
3.09 0.1259936603043775 -0.9908737551490352
3.1 0.11902996119793012 -0.9906274310208083
3.11 0.11998865035045297 -0.9904681904996494
3.12 0.11326381215844206 -0.9935239493243536
3.13 0.10937221074651754 -0.9940657364191724
3.14 0.10534095356144947 -0.9925302570277476
3.15 0.10196371634571957 -0.9935969080047967
3.16 0.09975896501563523 -0.9959740663561639
3.17 0.09385411101513967 -0.9949176930833044
3.18 0.08544478081771266 -0.9970035218687081
3.19 0.08266691180515456 -0.9945452147565297
3.2 0.07421319553964806 -0.9960312890818863
3.21 0.06657202621624121 -0.9995899765427432
3.22 0.060482113784187136 -1.0004228789343756
3.23 0.060505666289270746 -0.995841681774737
3.24 0.05516536762020417 -0.9979434366861312
3.25 0.04768655900982982 -0.9988351572798043
3.26 0.045369894071769855 -0.995971382356859
3.27 0.03895422253738721 -0.9939775925639085
3.28 0.03838166288115293 -0.9975806963424642
3.29 0.028417302078277057 -1.0036158905213577
3.3 0.02149472479515088 -0.9998313800399181
3.31 0.01957692496472383 -1.000174181880123
3.32 0.019050740630443666 -1.0009679705960388
3.33 0.00811445608631534 -0.9982926512237941
3.34 0.0023253925728568187 -1.0027092356050347
3.35 0.0013148676218559504 -1.0005667464716013
3.36 -0.0033083621756554737 -1.0016495331020119
3.37 -0.006924814855087402 -0.9988024833799711
3.38 -0.009737863778781854 -1.0014138046443375
3.39 -0.015268304832422492 -0.9981899090711587
3.4 -0.02223706306048179 -1.0023239842380245
3.41 -0.024585098911071003 -0.9984027132562511
3.42 -0.03125888986665892 -0.9976446102057669
3.43 -0.03429222524849154 -1.0004173857620797
3.44 -0.039764051781964044 -1.0010701435986322
3.45 -0.04526531271750032 -0.9958789684399727
3.46 -0.04747508569163318 -0.9959632793727533
3.47 -0.05159539624194023 -0.9999609405782162
3.48 -0.05592149121706235 -0.9955557447630853
3.49 -0.05953177681224632 -0.9984646426438422
3.5 -0.0634244464974143 -0.9942695248202503
3.51 -0.0693148176750454 -0.9933351197676312
3.52 -0.08125974234319844 -0.9967604395120205
3.53 -0.07968945137839226 -0.9940602875601229
3.54 -0.08547699596356118 -0.9951386459367766
3.55 -0.09172369239027446 -0.9968643188572412
3.56 -0.09094296277599782 -0.9971668112180234
3.57 -0.09744578949292435 -0.9951481158538569
3.58 -0.10468177151065558 -0.9944558162934025
3.59 -0.1089584604479662 -0.9935530421896722
3.6 -0.11444384721159473 -0.9911552537620195
3.61 -0.11874441621291874 -0.9931298157567452
3.62 -0.1272646837263588 -0.9935300995372928
3.63 -0.13007565269190424 -0.9910651481452262
3.64 -0.13674874253188676 -0.9890833801322254
3.65 -0.14042872684656216 -0.9914334387753133
3.66 -0.14442262827061927 -0.9889296419828502
3.67 -0.1453513681447829 -0.9852450401502847
3.68 -0.1524199675809934 -0.9890567843314046
3.69 -0.1559185946603496 -0.9874437544368474
3.7 -0.15937084625870035 -0.9885202090332218
3.71 -0.16476418715020372 -0.9857399066096959
3.72 -0.1699922315447308 -0.986587092920535
3.73 -0.17639207905204507 -0.9836344125073626
3.74 -0.17738242282793032 -0.9841517265706172
3.75 -0.182674391495403 -0.9835569812641982
3.76 -0.18589513889531634 -0.9782232263513791
3.77 -0.1909122561135218 -0.9775014820271766
3.78 -0.19647609687083914 -0.9837270930583202
3.79 -0.20328378758105903 -0.9761827586031703
3.8 -0.20607435657266834 -0.9819897548726126
3.81 -0.21719689434798184 -0.9804217279976152
3.82 -0.22148295284901032 -0.9746182970473977
3.83 -0.22520834587953106 -0.9725687435003677
3.84 -0.23092415836555044 -0.9719457463401163
3.85 -0.23658721756142728 -0.9738622733478016
3.86 -0.2445533224653159 -0.9663121344193188
3.87 -0.24670940709818767 -0.9726509410422605
3.88 -0.25490078510576836 -0.9690132625711945
3.89 -0.2515607215217955 -0.9683386399861048
3.9 -0.25726688623235755 -0.9650699897239898
3.91 -0.2646678312194999 -0.9669117729300974
3.92 -0.2645858036555905 -0.9639623407463145
3.93 -0.2725954397017363 -0.9588080462515773
3.94 -0.2750163645686499 -0.9614996530375988
3.95 -0.28000144815247086 -0.9547130239746172
3.96 -0.288961488460214 -0.9569035797422966
3.97 -0.28898301293724976 -0.9563304496600308
3.98 -0.2930509198422776 -0.9543681757649235
3.99 -0.29610118123964513 -0.9537515094529303
4.0 -0.3051619943464859 -0.9597990978918045
