!Agilent Technologies,E8363C,MY49030273,A.09.42.18
!Agilent E8363C: A.09.42.18
!Date: Tuesday, May 03, 2022 03:54:22
!Correction: S11(Full 2 Port(1,2)) 
!S1P File: Measurement: S11:
!
!Created with skrf (http://scikit-rf.org).
# GHz S RI R 50.0 
!freq ReS11 ImS11
0.5 0.972007453384602 -0.22962617886414535
0.51 0.9748261925251729 -0.232976601199001
0.52 0.9709561639271247 -0.23646785253112826
0.53 0.9693461553568892 -0.24089837166776173
0.54 0.9681257796738665 -0.24150376870402082
0.55 0.9669997329667224 -0.24933468033869885
0.56 0.9649130628929165 -0.2553597131746336
0.57 0.9650891390577263 -0.2629292726916835
0.58 0.9640490768168041 -0.26438268070115223
0.59 0.9657512782710715 -0.26731984099586226
0.6 0.9626202193118669 -0.27269821969007935
0.61 0.9622470220360901 -0.27867562158622045
0.62 0.9586658613438249 -0.2828053915935849
0.63 0.9546351757911286 -0.2845031372049038
0.64 0.9558368900566124 -0.2871234185792928
0.65 0.9527358995335361 -0.2938761112431809
0.66 0.9566406531357668 -0.29750024955088866
0.67 0.9522349590102696 -0.30332120608455126
0.68 0.951117082192306 -0.30679063857611655
0.69 0.9500167035824482 -0.3123267868958529
0.7 0.9477263856995726 -0.3182764145377921
0.71 0.9464920101381855 -0.3205438737495623
0.72 0.9436236812587799 -0.32766837499666013
0.73 0.9458714111076316 -0.3280834092386438
0.74 0.9439884227772383 -0.3337627595629663
0.75 0.94271332564422 -0.3409232244835795
0.76 0.9381776202142312 -0.3426120820331497
0.77 0.9386017017258695 -0.3477455553292397
0.78 0.937566514019675 -0.35100273567678647
0.79 0.9343871140104941 -0.35305968176676455
0.8 0.9328426890750527 -0.3563142712383282
0.81 0.930221365983036 -0.3648818884142094
0.82 0.9277333157179102 -0.3670765545737173
0.83 0.9267518245263873 -0.37331028552432977
0.84 0.92737384356075 -0.37341003752914553
0.85 0.921332361521056 -0.37894111293167193
0.86 0.9220446932231128 -0.3849943863408283
0.87 0.9194108585814421 -0.39050464170144555
0.88 0.9205952004539486 -0.3932664329507512
0.89 0.9177981779694179 -0.40135448459176354
0.9 0.9124707611875027 -0.40123500505473225
0.91 0.9145748032961256 -0.40583675590007984
0.92 0.910695438779401 -0.40962182341043896
0.93 0.9085548207294705 -0.4165451508732468
0.94 0.9073463039924029 -0.41839999453619164
0.95 0.9068282385827826 -0.42535244370519354
0.96 0.906312415195478 -0.4268944036813312
0.97 0.9020629497757474 -0.4304604374563391
0.98 0.8996368278150373 -0.43670313002137223
0.99 0.8940294500787733 -0.4442105955626135
1.0 0.896339641490933 -0.44260036238286743
1.01 0.8909870632112877 -0.4501573078218142
1.02 0.8918117796675025 -0.45249552791881426
1.03 0.8917234190035545 -0.45835464526042285
1.04 0.8849194300280715 -0.46187522160121247
1.05 0.8857741902761188 -0.46407354038321685
1.06 0.8840346901676971 -0.4687254487181771
1.07 0.8797062150257902 -0.47172717800141867
1.08 0.8818765598883123 -0.4765602397120925
1.09 0.8763445300909659 -0.48084459519943407
1.1 0.8727268335242335 -0.48542995292908725
1.11 0.872947091485881 -0.49098665475441483
1.12 0.8687396854672403 -0.4926606390521668
1.13 0.8677472250874494 -0.5011946344721949
1.14 0.8650571698920313 -0.5026693073275501
1.15 0.864258188481164 -0.5027956088627675
1.16 0.8599358468465849 -0.509843537377026
1.17 0.85898951519225 -0.5097272216740436
1.18 0.855557106922398 -0.5166193887667252
1.19 0.8497462747710125 -0.5205738207767185
1.2 0.8532109084050453 -0.5292987513987705
1.21 0.8465833480789494 -0.5308951074062117
1.22 0.8460408889809227 -0.5346039765656155
1.23 0.8420463578020919 -0.5368015931898787
1.24 0.8406837198689181 -0.5410019993196209
1.25 0.8400671153872724 -0.5460051023739398
1.26 0.8363474182039633 -0.5487147273182378
1.27 0.8308628072832546 -0.5513191417672542
1.28 0.8278569988576623 -0.5539696200938284
1.29 0.8305285025580518 -0.5607349929489809
1.3 0.8264513711673673 -0.5630975474845776
1.31 0.8226844520416265 -0.5704626142408
1.32 0.8196063737263254 -0.5711671386299076
1.33 0.8145122975142355 -0.5760493215049367
1.34 0.8146977429504936 -0.5809720151460321
1.35 0.8124367228414808 -0.5831729054278746
1.36 0.8080888626699209 -0.5866930320486875
1.37 0.8101534859405612 -0.5904039495407739
1.38 0.8023681881866245 -0.593863693888552
1.39 0.801344642018854 -0.5982253093404325
1.4 0.7955416319502548 -0.6017642748713317
1.41 0.7960145096495522 -0.6029035755388176
1.42 0.7913121249517202 -0.6103166527027657
1.43 0.7920388841912979 -0.6141989793836653
1.44 0.7860378070135948 -0.6180317308716345
1.45 0.7815497398537279 -0.6198675697149887
1.46 0.7808521884890589 -0.6238025276823329
1.47 0.7795279660201467 -0.6311148228445013
1.48 0.7740055656019198 -0.631449791265475
1.49 0.770802426052684 -0.6339787716555026
1.5 0.7717083784377802 -0.6402395735321684
1.51 0.7691826770114284 -0.6434835220719396
1.52 0.7653051808052506 -0.6437758095072557
1.53 0.7589428821851625 -0.6469067070230592
1.54 0.7565567347193412 -0.6554101153518226
1.55 0.7539362313650807 -0.657209396092157
1.56 0.7523702306742462 -0.6613727661723681
1.57 0.7508104864976859 -0.663106016293107
1.58 0.7433068958347808 -0.6644218732902375
1.59 0.7422387115578354 -0.6689875351189251
1.6 0.7422540652508492 -0.6759949982494874
1.61 0.7362549460932071 -0.6770726286528653
1.62 0.7316454958937133 -0.6812666321833752
1.63 0.728947704390497 -0.6816094296608985
1.64 0.7253391972546839 -0.6886525091422314
1.65 0.7234534267618762 -0.6935147829728192
1.66 0.7187186622952949 -0.694815595575203
1.67 0.7159752504776546 -0.6982651016946361
1.68 0.7138125374261731 -0.699296450591616
1.69 0.7094093730689327 -0.7032149263342161
1.7 0.7072578027190896 -0.7073373073360275
1.71 0.7029771701088755 -0.7077645081140331
1.72 0.7007291421643275 -0.7121720126002721
1.73 0.6985323743698331 -0.7142013761812348
1.74 0.6910617571180243 -0.7213748472809407
1.75 0.6903067864429615 -0.7219154529597036
1.76 0.6870192640445836 -0.7274570100085549
1.77 0.6827232651867398 -0.7314481495478561
1.78 0.6817382178255434 -0.7350206092455954
1.79 0.678689503999673 -0.7396733587070115
1.8 0.6754226678115367 -0.7379533994646745
1.81 0.6704126505312952 -0.7434468342932513
1.82 0.6676245862784222 -0.7461631885155797
1.83 0.6612571028139371 -0.7456090321707609
1.84 0.658842145707614 -0.750412335933449
1.85 0.6554295194221406 -0.7568265480428222
1.86 0.6512478689911775 -0.7581912789027498
1.87 0.6476277911269753 -0.7619647671242118
1.88 0.6452534191960372 -0.7647510150019384
1.89 0.6419033745638643 -0.7692652050989015
1.9 0.6381481453501814 -0.7684766514643514
1.91 0.6368717024541154 -0.7745051296449064
1.92 0.6325963386006206 -0.77382244148454
1.93 0.6257321439983448 -0.7810507920171171
1.94 0.625453053702123 -0.7814524217918836
1.95 0.6169567862171922 -0.7802921749981307
1.96 0.618394905175892 -0.7857154911750386
1.97 0.6130592397092368 -0.7927038539668924
1.98 0.6074010496429791 -0.7947798440301923
1.99 0.6069200352500046 -0.7955010172898627
2.0 0.602812518949232 -0.7990717981235771
2.01 0.5995846684443975 -0.8005489338550201
2.02 0.5927181116365967 -0.8045448118694866
2.03 0.5898350922451318 -0.8067853073064488
2.04 0.5900676219912425 -0.8107308171206169
2.05 0.5812678564203815 -0.8110103858580068
2.06 0.5795158254540577 -0.8122236348360133
2.07 0.5751113055014521 -0.8192552658485429
2.08 0.5727263893094884 -0.8197965283050621
2.09 0.5678365264931169 -0.8206883233026593
2.1 0.562465735298204 -0.8252442909809732
2.11 0.5628500246543844 -0.8289444672549416
2.12 0.5560358120637326 -0.8305316967892916
2.13 0.5516176279103483 -0.8355612828633118
2.14 0.5467312416851233 -0.8379800582308379
2.15 0.5469356074444376 -0.8351067317166918
2.16 0.5400375660564082 -0.8409472178735701
2.17 0.5355018052744432 -0.8437837948053054
2.18 0.5318820790448764 -0.8462678592698
2.19 0.5273924809472419 -0.8474740642138318
2.2 0.5248336373630781 -0.8515439997883213
2.21 0.5227932371023444 -0.854939829703112
2.22 0.5182178518641166 -0.8549344753337207
2.23 0.5158446721534788 -0.8565687856729408
2.24 0.5074780352118871 -0.8608518329139522
2.25 0.5037302911813079 -0.8640357886358278
2.26 0.5027497694181398 -0.8649291430307822
2.27 0.491312662102587 -0.867997294121131
2.28 0.49089515512571347 -0.8722016623702675
2.29 0.4865432013278914 -0.8737857679378146
2.3 0.48490265214421024 -0.8692079272187333
2.31 0.4799213570334458 -0.880183816573906
2.32 0.47629077740656545 -0.8852682356034379
2.33 0.47410952888800856 -0.8802990634709595
2.34 0.46339098871643986 -0.8837802337525942
2.35 0.4620918300827488 -0.8886828366312458
2.36 0.4626636010921298 -0.8890001153411773
2.37 0.45545479955898 -0.8898553765530614
2.38 0.4463669196721563 -0.8893021638204358
2.39 0.4462436360301732 -0.8962951044702377
2.4 0.44158562991824973 -0.8980680468845141
2.41 0.4377397375402326 -0.9009113182077326
2.42 0.4328178914377233 -0.9025090772014415
2.43 0.43131806212190504 -0.9035446550249794
2.44 0.4197264038190042 -0.9077281457296527
2.45 0.4207801856857194 -0.9048728547543992
2.46 0.41485317096279634 -0.9077151348421928
2.47 0.41178961369925576 -0.9118259384137433
2.48 0.40565029421129734 -0.9140387906445651
2.49 0.4031005332613166 -0.915434420658383
2.5 0.3996673415895434 -0.9166858631444185
2.51 0.39348983650276076 -0.921721972306521
2.52 0.38711093059605506 -0.9205163590921628
2.53 0.38917431549240616 -0.9237444043200076
2.54 0.38260427334521907 -0.923113962558041
2.55 0.37893729502418005 -0.9237304635339482
2.56 0.37231946879411776 -0.9284475291089299
2.57 0.36754648792877326 -0.9300110588889401
2.58 0.36089564116430534 -0.9322773801626181
2.59 0.3624133852806563 -0.9344235759570023
2.6 0.35182173664346633 -0.9336232706151153
2.61 0.35333394195486617 -0.9355067082020094
2.62 0.34438795387376964 -0.9361050902504542
2.63 0.343905915754938 -0.9391300629326466
2.64 0.3402460735652458 -0.9404575412123863
2.65 0.3332962344030405 -0.9413695632676337
2.66 0.32841386828655184 -0.9444775538308925
2.67 0.325793801491549 -0.9450875627639383
2.68 0.319074058207394 -0.9471567652309532
2.69 0.3149124044810502 -0.9460783516187948
2.7 0.31038967168994347 -0.951145617803086
2.71 0.305186204957649 -0.9549593750042422
2.72 0.2972954597735321 -0.9511209365116463
2.73 0.29584536403863976 -0.9590602504267883
2.74 0.29788095564072264 -0.954730288382984
2.75 0.29082688796983036 -0.9555301244804855
2.76 0.2854708367398486 -0.9598573601565166
2.77 0.28348911921805064 -0.9582481364207729
2.78 0.27135072506205576 -0.956230430825058
2.79 0.2693178318591812 -0.9623076183681502
2.8 0.26269295070266424 -0.9644379253545576
2.81 0.25784314914098494 -0.9635224745348536
2.82 0.2562253101114875 -0.9652045129141751
2.83 0.2522312259229738 -0.9672388675540192
2.84 0.24646547898336946 -0.9710052737010281
2.85 0.24165188295997642 -0.9693710375326001
2.86 0.23865885766954797 -0.9715124583879775
2.87 0.23389493401122644 -0.9728612430874194
2.88 0.22626842446928205 -0.9735003816407646
2.89 0.2233592284591573 -0.9762500365584005
2.9 0.21801926515338604 -0.9732710177756767
2.91 0.21317129137928953 -0.9761866800200739
2.92 0.20652582608567369 -0.9797164859671301
2.93 0.20123028293334652 -0.9805701699231598
2.94 0.20119880189667225 -0.9784945030911381
2.95 0.19591520370574694 -0.9793152845509783
2.96 0.193537702775332 -0.9811146723758434
2.97 0.18962144527740094 -0.983020803391584
2.98 0.18398718689432075 -0.9835527629460769
2.99 0.1757997299354691 -0.9836956889852726
3.0 0.17307907936268452 -0.9836835857993989
3.01 0.16572559205617113 -0.985157166353043
3.02 0.16560882409996966 -0.985592437228201
3.03 0.15968478917856382 -0.9873885967581492
3.04 0.1523368070217769 -0.9876675643518401
3.05 0.14928145192675998 -0.9907863440290285
3.06 0.14298873612815857 -0.9887205301694705
3.07 0.1365806768277408 -0.9904996941975119
3.08 0.1334494391087737 -0.9899733498523332
3.09 0.13016406289287646 -0.9888091716189487
3.1 0.1257351996402585 -0.9911531925964119
3.11 0.11870600974589046 -0.9918593110165499
3.12 0.11533516836088982 -0.9918628829290862
3.13 0.11149694189919832 -0.9930999866464225
3.14 0.10270928828778066 -0.991779129545006
3.15 0.10055256922084636 -0.9933113268997452
3.16 0.0993635623773085 -0.9953783217164103
3.17 0.0932704268239142 -0.9954283011367345
3.18 0.0881527861804957 -0.9980801830329614
3.19 0.08784705448172338 -0.9941766651753196
3.2 0.07948899894850342 -0.9956873567729075
3.21 0.06805713263934189 -0.9954027534023868
3.22 0.06755043673818031 -1.000517770654507
3.23 0.06314712890287592 -0.9963444470503688
3.24 0.057898835287794256 -0.9998143759108087
3.25 0.05601201216072741 -0.9947674398291333
3.26 0.050999495717788286 -0.9982875284726811
3.27 0.045061335877241926 -0.9970223134965904
3.28 0.042738098647652906 -1.0011137756625856
3.29 0.03697818547275698 -0.99824941112809
3.3 0.03073044565732242 -0.9994760748648507
3.31 0.027888019319145436 -0.9995012963793474
3.32 0.02052710689548692 -1.0003774756376325
3.33 0.01575150675550349 -1.0014121199545771
3.34 0.005730048819239901 -1.0015990904998593
3.35 0.004544305580902849 -1.001377778389425
3.36 0.00022709934267964738 -1.0016448667441014
3.37 -0.0029598897519036984 -0.9996975657688253
3.38 -0.008096967792778218 -1.0035096063631725
3.39 -0.01247852145162783 -1.002531127959302
3.4 -0.014193067775707934 -1.0001825436054053
3.41 -0.022998163559889487 -0.9998413755992188
3.42 -0.023429836483990975 -0.9987988196574541
3.43 -0.035025690032273196 -0.999478935512545
3.44 -0.03999501307116845 -0.9978122708494718
3.45 -0.04382860817882913 -0.9975706579299269
3.46 -0.04484385795228645 -0.9996762810522144
3.47 -0.05152476253866012 -1.0022428703034802
3.48 -0.05832759837199125 -0.9974353293276574
3.49 -0.05680496417335109 -1.0013416108549942
3.5 -0.06350357502535603 -0.9996609889832704
3.51 -0.07053030410773051 -0.999482210743214
3.52 -0.07314798391486024 -0.9944877240371418
3.53 -0.07936722609298376 -0.9937142403202313
3.54 -0.08573292539378577 -0.9931779881640307
3.55 -0.09063989670423764 -0.9923250395928861
3.56 -0.09830726884755966 -0.9996002882443121
3.57 -0.09787528494263577 -0.9967365285309977
3.58 -0.10725149762393323 -0.9906964283908648
3.59 -0.10783601032249812 -0.9925228563924393
3.6 -0.11354677670319535 -0.9939952345887284
3.61 -0.11453377412647994 -0.9943742508082931
3.62 -0.11864221321104661 -0.994434590414888
3.63 -0.12428340388319566 -0.9903379475785141
3.64 -0.13023546772803582 -0.98846889359548
3.65 -0.13684409684929397 -0.9914646644144569
3.66 -0.14086767488946245 -0.9932705515681607
3.67 -0.1460751476300105 -0.9892352490203101
3.68 -0.15224620955811405 -0.9919291724708064
3.69 -0.15294420941334277 -0.9897578614057115
3.7 -0.16139074217671368 -0.9882096902599349
3.71 -0.16313886044022338 -0.9855898809681546
3.72 -0.16908846203489233 -0.9882038867716499
3.73 -0.17585557823374742 -0.9881395255337821
3.74 -0.177833518713465 -0.9838027928019984
3.75 -0.18541526297565655 -0.9814780156557699
3.76 -0.18897014283445918 -0.9827769534635742
3.77 -0.19604332180550293 -0.9823207844773233
3.78 -0.20007960037032085 -0.9767391659841191
3.79 -0.20518109017925792 -0.9757529469152971
3.8 -0.2074555616765375 -0.9812904374560493
3.81 -0.21381385579531434 -0.9810025288093538
3.82 -0.21387122963945743 -0.9799100140698743
3.83 -0.2208084508292145 -0.9750296396188005
3.84 -0.2271603805473471 -0.9766501985141667
3.85 -0.2300058392156088 -0.9727641187758307
3.86 -0.23413292344197212 -0.972581711438178
3.87 -0.24182932382152683 -0.9704086123237512
3.88 -0.24863398471189538 -0.971032234339232
3.89 -0.25117376441731104 -0.9694003816204938
3.9 -0.25311092753625897 -0.9677955591504853
3.91 -0.2569661290085546 -0.9681939840554642
3.92 -0.264358153751448 -0.9692930646940486
3.93 -0.265465726959857 -0.9728799054516603
3.94 -0.27191046215377135 -0.9623869986219258
3.95 -0.277864589646066 -0.9625677969169434
3.96 -0.28541638724188284 -0.9599797853435308
3.97 -0.28681313644052436 -0.9604332691941256
3.98 -0.2940252869241335 -0.9573137706961505
3.99 -0.29527413298928806 -0.9560798750163811
4.0 -0.30135351777325703 -0.954976140335186
