!Agilent Technologies,E8363C,MY49030273,A.09.42.18
!Agilent E8363C: A.09.42.18
!Date: Tuesday, May 03, 2022 03:58:37
!Correction: S11(Full 2 Port(1,2)) 
!S21(Full 2 Port(1,2)) 
!S12(Full 2 Port(1,2)) 
!S22(Full 2 Port(1,2)) 
!S2P File: Measurements: S11, S21, S12, S22:
!
!Created with skrf (http://scikit-rf.org).
# GHz S RI R 50.0 
!freq ReS11 ImS11 ReS21 ImS21 ReS12 ImS12 ReS22 ImS22
0.5 0.0077812727568365775 0.006930345218699372 0.9936281440612509 -0.046671084116368194 0.9962281583903174 -0.04517962106297871 0.0062815731028261585 0.012930003207678847
0.51 0.003095928860892159 0.010230699568256396 0.9964030553669352 -0.04383670157760038 0.9952183281011616 -0.04473787869887069 0.003159229997316558 0.009215389046308965
0.52 0.006476691539331331 0.00834504019021504 0.9977193219409893 -0.04503527110859555 0.997759248486968 -0.04888982152335254 0.0021874901229220964 0.01120734445753246
0.53 0.004272082574075485 0.01031462868845572 0.9969948870343921 -0.04843057186654092 0.9970036745596976 -0.05095250912680759 0.005318384054652398 0.01250968013450995
0.54 0.005664739239068586 0.010723831326596031 0.9941935881330358 -0.05207119124995618 0.9941813351583307 -0.04596140682882877 0.005355445594331282 0.012388037719655402
0.55 0.005660942053425246 0.012080383208727053 0.9914500199824489 -0.05109628374868788 0.9920261841493453 -0.04852674579796141 0.007832794950292672 0.012019460930154706
0.56 0.004914425021594977 0.009503646414691832 0.9959202324889359 -0.05113129767838173 0.9951572589003937 -0.04925290530795611 0.006755841318439365 0.01111988701033354
0.57 0.004154481265230522 0.009714639046375458 0.9924333690058358 -0.05161203273676789 0.9998253581841492 -0.05092502378658043 0.00434365034072675 0.00921077862960282
0.58 0.005014311196248734 0.009916403814777637 0.9962304744226632 -0.052394336179531036 0.9962856514521251 -0.05302977642685811 0.005507590083944786 0.012719423880837941
0.59 0.004333778203882348 0.009262477933291612 0.9995834146267032 -0.053553795538214495 0.9973181572155329 -0.05026668559865763 0.009508073517177359 0.011494555267049518
0.6 0.006322196087628134 0.011455343260199882 0.9915701832701274 -0.04991049600013285 0.9934575385049592 -0.05379651956293481 0.005782180757900466 0.0113517763944541
0.61 0.007466364320758927 0.010303118617828488 0.9952545762838714 -0.05528081888012844 0.9995248317255 -0.05325143666478664 0.004791413967810021 0.013184935253921204
0.62 0.005663635141647502 0.010860034204385942 0.9949449639999678 -0.056983593273619175 0.9965348669155848 -0.05605082362818135 0.005265587297980204 0.0121831275269027
0.63 0.006327564430520894 0.011704932227832272 0.995916434638886 -0.0570032341465232 0.9949365938525061 -0.055827429628082834 0.0049365469814131036 0.014479325366144801
0.64 0.007871761253486606 0.012484127600825533 0.9940863845935263 -0.056483735300617954 0.9959009289680454 -0.06111791036391279 0.006442724224970572 0.014117913797568375
0.65 0.0068002831429078495 0.011627697780063125 0.9972445111922156 -0.05418614309605731 0.9938519767371532 -0.05774903984384329 0.006615795254897322 0.013132946477123398
0.66 0.006684764894715893 0.011681751082227102 0.9945310526129894 -0.05907654952148762 0.9934718523030425 -0.05992359588025698 0.007074108706235783 0.014230851493534457
0.67 0.006782069853653448 0.011395059045203652 0.994850507607512 -0.06027250341235325 0.9941454698478266 -0.05809957025563181 0.007134916871239329 0.012578036204697184
0.68 0.006187369289560142 0.012287314818509407 0.9949609892073238 -0.06146961641634426 0.9965436715173335 -0.06104011532503458 0.006281586459849787 0.014153119845153727
0.69 0.008479932037556955 0.011120923918504961 0.9940776992951512 -0.06106432653552351 0.9966964892659108 -0.0597490461914581 0.0070875383589328695 0.012827000821076781
0.7 0.0076194661515109185 0.01189539377022614 0.9937256063818221 -0.062376251664119566 0.992511808812527 -0.060137120541911296 0.006830985174316901 0.014511250910814894
0.71 0.008881889191345133 0.0124741819626935 0.9921569227362707 -0.060528745619129146 0.9981948732162438 -0.06298377551042947 0.007422603225028141 0.013158239044750069
0.72 0.007063085052352445 0.011012143713056628 0.994718909008903 -0.06310816173157312 0.9962504421188326 -0.06294465949099307 0.0062127840266679515 0.012772434540745333
0.73 0.008209217162563554 0.012183315411437922 0.9944618259473934 -0.06709088342007812 0.9961735946224712 -0.062490729911099815 0.005719335677459072 0.013596395026311683
0.74 0.008342472874049125 0.0116994801504283 0.9942178724529892 -0.06594070373993856 0.9956807153954115 -0.06459382873058077 0.005051553541708433 0.014056304097806036
0.75 0.007627965368515186 0.013772660376397352 0.9932491098580717 -0.06784393524308521 0.9922200952884501 -0.06618886989210354 0.009096648227041164 0.01554958563847544
0.76 0.009738730404708101 0.01072925755688048 0.9953776766556146 -0.06940338795156002 0.9935684714901976 -0.06571820896857654 0.008704095920786123 0.012496510408293532
0.77 0.008905339231731079 0.013614456408184903 0.992671370365277 -0.07128787522019804 0.9973098808407425 -0.0684456367205308 0.00848824912849035 0.014123371281612779
0.78 0.006640000964779439 0.014349341088081084 0.9976022242335703 -0.07108829343625939 0.9951907393281355 -0.0696509147469749 0.010034631463618373 0.014827144983316231
0.79 0.007612163548876177 0.012995650522098792 0.9938155753870909 -0.06776859131719216 0.997744202639967 -0.07115229738594715 0.009137116427011309 0.015521984364705366
0.8 0.008166356846686311 0.015381623457929594 0.9935294641706245 -0.07118821425559588 0.9959803477153237 -0.06797085515609287 0.007359030281666925 0.016885703867244462
0.81 0.008352613981416769 0.013485393696066057 0.9928824643683829 -0.0709580308012686 0.9949931587713238 -0.07312834695749185 0.01003169477532124 0.01283711526530098
0.82 0.008569713085478672 0.011968386064063134 0.9930232421803377 -0.06895870077992963 0.9930687462196479 -0.06852789886900315 0.007803277118800049 0.011944153440094037
0.83 0.009855516074497948 0.01380458112135189 0.9932736241842415 -0.07337955661163337 0.993938829243223 -0.07416643469089583 0.007724016635922753 0.013978615266134366
0.84 0.007899572368882345 0.012047411677088882 0.9941433408333116 -0.07141732045515496 0.9938983660759726 -0.07419619501219059 0.007912962870152376 0.016475821904435563
0.85 0.008391575585911719 0.01372974188983918 0.9950527548114432 -0.07635126306606263 0.9945008157391635 -0.07424193022262669 0.007464033457077698 0.016187610896506423
0.86 0.008951522109410165 0.01517445370518156 0.9957816684916293 -0.07527504240532548 0.9928263083279215 -0.07443936753186471 0.0106965254647287 0.016237456301559462
0.87 0.009468611363923983 0.01210918296306282 0.9936740144105228 -0.07587953018348499 0.991359923601722 -0.07722031474129007 0.008683364792854498 0.016025818207265216
0.88 0.011088614227035384 0.01352016942164771 0.9910841840301096 -0.07362769844908704 0.9939088903970763 -0.07800035809977653 0.009719761071817443 0.015893958684480104
0.89 0.008921444247983135 0.014388910153227323 0.9920999405531412 -0.07564786853565875 0.9930906809316979 -0.07518065653221212 0.010969998998441909 0.014799972414195967
0.9 0.009531442380858195 0.014405054508322615 0.994102963329443 -0.0811232472973737 0.9946760366338645 -0.07598285047665297 0.009806549555348133 0.015148778061327127
0.91 0.010778649527326451 0.014229670649734932 0.9948538964464924 -0.08214763642264068 0.9941454785997988 -0.07811864873093491 0.008740496195460384 0.014177914789782123
0.92 0.009363659429080823 0.015695121145914984 0.9949731228334546 -0.07863398153330291 0.9949472549328061 -0.07988788583203414 0.010577711000945535 0.016516658117101197
0.93 0.011899504546253563 0.011958795207802774 0.9946101052410834 -0.08342322086070107 0.9961711760382972 -0.08370394817056968 0.010424006390763964 0.015676753838786958
0.94 0.011022720896972532 0.012863949476178124 0.9932774138873572 -0.08496521464171092 0.9929118923281673 -0.08051060607305091 0.009872999274687363 0.015869570656227155
0.95 0.009965166606484499 0.015821866211913876 0.9921229400650355 -0.08371016982959954 0.9955210938336985 -0.07988606420672623 0.008861681841068987 0.015757881718392246
0.96 0.011555805241771078 0.012908430090930637 0.9919517974397447 -0.08369450560611977 0.9949124628147199 -0.08472203498235104 0.00845541293477916 0.01563128212023323
0.97 0.011907238614934415 0.014450938765216909 0.9946904353534137 -0.08908641275619684 0.9899412479526285 -0.08462002565248465 0.00997368047361211 0.014626374865507242
0.98 0.010161523341024735 0.014919901341921645 0.9957653369534373 -0.08628855059244318 0.9936224477594017 -0.082678915214758 0.01111719271889671 0.018006531136069318
0.99 0.012246388101744329 0.012535249197464854 0.993590176370659 -0.09259730917147016 0.9925863742750268 -0.08391131358746401 0.011489943908539522 0.017148339736525124
1.0 0.010548639559667805 0.014310939675319902 0.9926419687059228 -0.09047493026150386 0.991422074028342 -0.09101580841843407 0.010635449420390124 0.0166758286545026
1.01 0.010413931477553455 0.014274307189490099 0.9878637531000208 -0.09273957814278855 0.9913844125668047 -0.08902971300162624 0.011145109397381116 0.016409852771423417
1.02 0.013377564662874233 0.01447057058232188 0.9908888169654503 -0.09182288864783365 0.9951290486935982 -0.0891178723954723 0.012799001616753854 0.017140281412472907
1.03 0.011214635159758617 0.016366423099788172 0.9909501249646527 -0.09124633083754638 0.9939394937167019 -0.08684902622378761 0.00887432277081249 0.017360746136749806
1.04 0.013521851163055399 0.01577324116825234 0.9942591528389546 -0.09233417952421877 0.9926243590323245 -0.08993005867254267 0.011515026250710055 0.016597273246451803
1.05 0.013546321571501955 0.014472018532582315 0.9878908056098028 -0.09098202936787347 0.9916079897479998 -0.09362681407204182 0.012282492785125124 0.017517366984871233
1.06 0.012080943608552904 0.013958953466662124 0.9896306992410996 -0.09591158291014942 0.9942700262462288 -0.09730859541409077 0.009579241224801941 0.0184517326771891
1.07 0.013034045025428438 0.01534913834082256 0.9899331329721979 -0.09318173715320467 0.990349428982305 -0.09592189019630334 0.01258765215789812 0.017651196382439605
1.08 0.011361839445280927 0.015593715061825941 0.9910000643688649 -0.0931999285875777 0.9939624493853606 -0.09222664485036239 0.012106922686266805 0.016579026438579534
1.09 0.012073214472614485 0.014229891661953275 0.9898388471230096 -0.0944823011469814 0.9890299270103108 -0.09485364964030239 0.013560352443259576 0.01556558911219906
1.1 0.012308585596249127 0.015680515703642754 0.9904553800530982 -0.09863730125842686 0.9938881311430477 -0.09786463364174193 0.013941182224731109 0.014772083345373237
1.11 0.011096325916827634 0.016241360381719274 0.9874429449924323 -0.1007318758309671 0.9941402248540264 -0.10075097171310411 0.013960464483873065 0.017160347418977553
1.12 0.011901425026488915 0.01504747443730095 0.9897576479353499 -0.09766504172128333 0.9917700968286992 -0.096718535292566 0.01311046517680017 0.016786301541069425
1.13 0.012917790475915061 0.015565051852558328 0.9912425279194187 -0.09710673290487286 0.991913080157373 -0.10209993402202006 0.010669539834569143 0.015591851563918766
1.14 0.013250038741554051 0.015576097221297422 0.9897781953928355 -0.09598642818025663 0.9913065349638761 -0.1009486169319824 0.013011576613309312 0.016394393881473075
1.15 0.012115511565756711 0.015280350416968673 0.9913065263553528 -0.09832623601076579 0.9885518206678989 -0.1027379432993775 0.012719814448161015 0.017180702464005028
1.16 0.013459664812584517 0.01746740595831598 0.9903702480247425 -0.10073468451428512 0.991901159016551 -0.09884791460404377 0.012384526586961379 0.018262382968271672
1.17 0.01314205615862864 0.015374581600640341 0.9901030662422201 -0.10534432509650343 0.9944890735792771 -0.10411743344895674 0.013265860802812198 0.015471289367558509
1.18 0.012669005896001536 0.01605926232314621 0.9910654850905453 -0.1024931102917644 0.9939379012420735 -0.10015150456882731 0.014346289552351062 0.016612502864272884
1.19 0.01404920250544539 0.01625246592857128 0.9925802519082815 -0.10475897345905644 0.9887112032723847 -0.10241575735315421 0.015000299804986314 0.016145121980068053
1.2 0.013424746727919051 0.016212992519938182 0.9883047335873933 -0.10263883139471494 0.9909428948591059 -0.10402721747344951 0.016647164738597287 0.018495373055419106
1.21 0.014245840396443575 0.015199533753812756 0.9918207438520228 -0.10417607886667066 0.99151381415216 -0.10323155111265818 0.015239889919019124 0.018302907603137325
1.22 0.012836691323540709 0.01631773557146796 0.9890214202265492 -0.10318135917318118 0.9914799412923293 -0.10565925402763594 0.015993231486004067 0.019626841656177875
1.23 0.01436471935387892 0.015582318612334469 0.9937098626268326 -0.10912822445739698 0.9908624459822017 -0.10492227664494443 0.014712698680836845 0.016743136546669285
1.24 0.013856855273236946 0.014890211713045835 0.990797775080291 -0.10932858438618934 0.9919058851018843 -0.10834910454295643 0.014119531305277457 0.01778633654617526
1.25 0.015560763076800167 0.015858308403925412 0.9928207311507228 -0.11218640081296592 0.9866918916417103 -0.11030075631501536 0.014542043794581691 0.01818567324674347
1.26 0.01490243161012842 0.014797143373639824 0.9868513512169652 -0.11448320143137652 0.989509565226905 -0.11239685649836538 0.014923955228896505 0.0173475274589134
1.27 0.015025197052329764 0.015012000156844198 0.9840990900717591 -0.11226293610715861 0.9869801392758554 -0.11397265540516555 0.015178455036363826 0.017900528513089563
1.28 0.015700061174978068 0.015726412168592083 0.989341208200603 -0.11280568917679144 0.9870250478540749 -0.1089176008779941 0.014330771855769845 0.01951636117672301
1.29 0.014699160358616507 0.01471212777218655 0.9899280233021198 -0.11079302020283 0.9880981791599909 -0.11184975416351405 0.015459622108582333 0.01762538637816876
1.3 0.01604133104911888 0.01714477091373527 0.985651305875327 -0.11483084509138325 0.9895806056592241 -0.11115665887212026 0.016164962220620388 0.018543233538092705
1.31 0.014698549517424938 0.01537868054146753 0.9885433996000274 -0.11600854566017761 0.9922991730633766 -0.10934214491289251 0.015235126959958784 0.01738239255781865
1.32 0.015103341245651596 0.01712804058604434 0.9875431573760501 -0.11418639788230817 0.9877565076782091 -0.11325635579848116 0.016215031943749448 0.016380313812375275
1.33 0.01465853385487188 0.01830610521238378 0.9850804631579761 -0.11648512342974786 0.9892848895557111 -0.11536424618269842 0.0180177020696476 0.015702841865253118
1.34 0.014120901223967594 0.01473951260731224 0.988354266236709 -0.11604762528351095 0.9917295569626675 -0.11772904958498666 0.017193937258913296 0.017031056663641818
1.35 0.01504194912054746 0.016463609272821103 0.9881946528012303 -0.12091459805944134 0.9903463292691935 -0.11997671413941624 0.018437360189240363 0.02023106279690505
1.36 0.016926976622862924 0.014574405850907598 0.9811186787741353 -0.1138653736660604 0.9862020182109025 -0.11767837847557765 0.01853597754315295 0.015333824867599963
1.37 0.01668341231507871 0.01809438714376629 0.9906203488286859 -0.11872413677253074 0.9870297568807648 -0.11957017562137845 0.016632271796319823 0.018012619226450317
1.38 0.016087657081361853 0.013944720296511667 0.9871560073985272 -0.12050212873015684 0.9879760739521208 -0.11877720701004912 0.016631759741092697 0.017688621743256767
1.39 0.015215416510805858 0.01564333076386068 0.9875588923052888 -0.11798029435202916 0.9895292776296765 -0.12149313178537802 0.016041489340838527 0.016943884261961587
1.4 0.016646109270429674 0.015796650593287477 0.9865235854199158 -0.11929014079568485 0.9889783685235106 -0.1191121728897323 0.01895665284787582 0.015512492137246765
1.41 0.018155679940874175 0.01741874050860134 0.9921346893203321 -0.12103883972332616 0.9900233736995503 -0.12292322431573749 0.018732235458993496 0.015916965608336036
1.42 0.0158279346570165 0.01797226694477042 0.9883428216237847 -0.12060632670064834 0.986589772724076 -0.12698692619451538 0.017837848769804668 0.017739740937364138
1.43 0.016599340704684717 0.018537840269901493 0.9882995402160121 -0.12207381456945735 0.9885469162234256 -0.12159660433695316 0.017704563625490465 0.017149823297691307
1.44 0.018149881053274638 0.017696999594335516 0.987836982261882 -0.12257151866607995 0.986721259907469 -0.12265110395647641 0.016374757851404423 0.016555227580741773
1.45 0.018956356848650026 0.017841860724816735 0.9854813987467356 -0.12626881306681514 0.9873767926098145 -0.1254025513497943 0.019265283229734968 0.017771961653672078
1.46 0.01724387261531408 0.01770677023478362 0.9869735399521152 -0.12680814933333628 0.9843179747820874 -0.12675522646624887 0.019478670410400967 0.018213164492809717
1.47 0.018682206120477458 0.01631143849198208 0.9853415826686343 -0.1279640282674215 0.988948268485406 -0.12972061189328182 0.018489939154534382 0.018631538096253786
1.48 0.018709462853368535 0.015290703620419168 0.9893776779310434 -0.13218904757268657 0.9853466740799176 -0.1285265894783044 0.015048646833147045 0.019730301484252262
1.49 0.019111217604290017 0.015366404346250659 0.9896685653924204 -0.130807578040408 0.9868365864054054 -0.13089260483156478 0.017573914866970786 0.016505583291587363
1.5 0.017842493647675955 0.015147879662727855 0.9875167691707748 -0.1311468390142981 0.9842188785178615 -0.12948450791611235 0.01763974182316087 0.01730599698334504
1.51 0.017709276837490708 0.01599141471982087 0.9867210899471438 -0.13288305322785124 0.9827528172574107 -0.1307235267247396 0.01923100478563434 0.01898594043547924
1.52 0.018319459631948504 0.01714939808579452 0.9860413666540797 -0.13184490104237065 0.9851391227491912 -0.1317158836664513 0.01907142614079987 0.016251817217411778
1.53 0.016854319621914686 0.015087109401439272 0.9868886127290653 -0.13318787180396532 0.9842622783574209 -0.13441897028957253 0.019445954529280926 0.015811814865179453
1.54 0.0207383199003195 0.0169295366736326 0.9867275950814897 -0.13288564944015455 0.985862715166058 -0.1323170341287899 0.02086972173125281 0.017031629432232902
1.55 0.018851198956890067 0.015728964180761276 0.991009949480941 -0.14011427072314153 0.9859614362428792 -0.13674940980481864 0.02105483824695522 0.01767499873432562
1.56 0.018447668799809313 0.01621221721252298 0.9900922606350718 -0.13998660995860082 0.9860340684401164 -0.1364344707637266 0.019277511677823392 0.018054212535388806
1.57 0.018747048024201945 0.015621146742712214 0.9830254823975929 -0.13959729470191914 0.9856372142682099 -0.13975640925776933 0.01774401904372664 0.019041761799354667
1.58 0.018960568629121217 0.016666381652226038 0.9847958426550056 -0.1362879711352642 0.9861331586248422 -0.13859094640795389 0.017553412716789053 0.014945117172929701
1.59 0.01969569026823452 0.013912886201999649 0.9822090088221603 -0.13800690974949892 0.9837814738358158 -0.13950778313827136 0.020017850249459165 0.016264611970072416
1.6 0.02014252306176705 0.015754172185893988 0.9830577444664879 -0.14142409185126892 0.9789735003530122 -0.14063771852279233 0.019375681509350894 0.01485066530952278
1.61 0.019606354086328503 0.01533600290593011 0.9845624055806371 -0.14108024797202356 0.9825182551481274 -0.13702236989205593 0.01974734767299927 0.016556436697153776
1.62 0.021561354726539434 0.01691658551206058 0.9834731217625615 -0.1366703671317775 0.9844385966091113 -0.13652124547923852 0.019649192751089454 0.017156625387390538
1.63 0.019431979294410498 0.01577144473998485 0.9841162229238777 -0.1430894341327391 0.9847912356145294 -0.13988954054493627 0.021667301451110416 0.013618561473649411
1.64 0.021196138537347715 0.017182360383976032 0.9854770548588373 -0.13989552808995684 0.9849966333042682 -0.13957413890317266 0.02350146574994899 0.01665561878191047
1.65 0.021739275329421583 0.016460931579038177 0.982957644207649 -0.14053637066544764 0.984396755124009 -0.14181098544524579 0.02017034968741352 0.014831825416011399
1.66 0.021497340704571946 0.015747449614425594 0.9827544604845503 -0.1434298547682454 0.9850360325577616 -0.14324838452078997 0.02152909580904061 0.015539058252761624
