!Agilent Technologies,E8363C,MY49030273,A.09.42.18
!Agilent E8363C: A.09.42.18
!Date: Tuesday, May 03, 2022 03:55:51
!Correction: S11(Full 2 Port(1,2)) 
!S1P File: Measurement: S11:
# Hz S  dB   R 50
500000000 -0.013197461 166.439
500109375 -0.024343155 166.58916
500218750 -0.041970983 166.34529
500328125 -0.015874051 166.42836
500437500 -0.039503943 166.47661
500546875 -0.021714287 166.3784
500656250 -0.035199631 166.4095
500765625 -0.0078221522 166.56087
500875000 -0.031048384 166.32312
500984375 -0.0073394869 166.40984
501093750 -0.0013393369 166.41362
501203125 -0.0089307213 166.40437
501312500 -0.034926962 166.50671
501421875 -0.050777506 166.37457
501531250 -0.0044240882 166.64752
501640625 -0.023933005 166.44231
501750000 -0.050315592 166.64084
501859375 -0.035388287 166.27669
501968750 -0.018127052 166.2897
502078125 -0.023181653 166.37463
502187500 -0.056715827 166.27524
502296875 -0.029598061 166.67963
502406250 -0.012199299 166.44794
502515625 -0.0094360523 166.44781
502625000 -0.034573883 166.49451
502734375 -0.032425467 166.37463
502843750 -0.020616259 166.36472
502953125 -0.00072612334 166.40579
503062500 -0.017254697 166.24162
503171875 -0.042697564 166.25563
503281250 -0.026075577 166.56554
503390625 -0.052818153 166.39545
503500000 0.0013535337 166.51134
503609375 -0.03138347 166.08235
503718750 -0.038668592 166.21156
503828125 -0.060648199 166.41075
503937500 -0.022925155 166.47749
504046875 -0.058877911 166.23183
504156250 -0.034764659 166.13403
504265625 -0.0065812878 166.19244
504375000 -0.055937834 166.36354
504484375 -0.05272362 166.43297
504593750 -0.019028269 166.29353
504703125 -0.01465549 166.23152
504812500 -0.011743055 166.48862
504921875 -0.035979401 166.21463
505031250 -0.045756985 166.27058
505140625 -0.059981875 166.34358
505250000 -0.02804934 166.38597
505359375 -0.030632289 166.27025
505468750 -0.025351658 166.5361
505578125 -0.042923797 166.22551
505687500 0.0013721855 166.56567
505796875 -0.031244958 166.21321
505906250 -0.027951892 166.41942
506015625 -0.018606795 166.26743
506125000 -0.0073557021 166.30186
506234375 -0.063502923 166.22006
506343750 -0.035607744 166.24414
506453125 -0.0076654213 166.34833
506562500 -0.059382088 166.54294
506671875 -0.019914798 166.28745
506781250 -0.051817674 166.12421
506890625 -0.013942597 166.16972
507000000 -0.034547996 166.26469
507109375 -0.0084050037 166.1557
507218750 -0.0084613981 166.19289
507328125 0.0035914886 166.20058
507437500 -0.0056505562 166.37679
507546875 -0.020963944 166.3419
507656250 0.0020682572 166.25993
507765625 -0.050672948 166.18427
507875000 -0.064904913 166.27979
507984375 -0.034990508 166.21284
508093750 -0.011642843 166.3942
508203125 -0.0084705362 166.1548
508312500 -0.033895455 166.14757
508421875 -0.031437125 166.23975
508531250 -0.060288161 166.17537
508640625 -0.028038936 165.8811
508750000 -0.0070054447 166.22766
508859375 -0.02788295 166.1938
508968750 -0.022157816 166.08847
509078125 -0.044807792 166.1993
509187500 -0.028391546 166.24979
509296875 -0.0015533199 166.20901
509406250 -0.018068289 166.13986
509515625 -0.035552315 166.21588
509625000 -0.01020651 166.32745
509734375 -0.0067606713 166.23053
509843750 -0.023410575 166.05363
509953125 -0.047141574 166.34351
510062500 -0.0067894324 166.24074
510171875 -0.0045276713 166.24603
510281250 -0.041580915 166.24007
510390625 -0.020452365 165.83919
510500000 -0.048821416 166.03517
510609375 -0.01268951 166.18555
510718750 -0.017432816 166.0928
510828125 -0.019318476 166.03305
510937500 -0.013402402 166.21353
511046875 -0.011724005 166.17633
511156250 -0.053600237 166.265
511265625 0.0010977263 166.03142
511375000 -0.038401037 166.30254
511484375 -0.026490467 166.09221
511593750 -0.010209933 166.31078
511703125 -0.02735021 166.3374
511812500 -0.020453168 166.31371
511921875 0.022579169 166.39021
512031250 -4.3058051e-005 166.21608
512140625 -0.018520964 166.10703
512250000 -0.033111129 166.26312
512359375 -0.027219128 166.09373
512468750 -0.043042444 166.16881
512578125 -0.027177272 166.21481
512687500 -0.022830786 166.161
512796875 -0.030986559 166.02817
512906250 -0.025171259 166.14551
513015625 -0.053270821 166.19379
513125000 -0.038677204 166.28253
513234375 0.0073702303 166.22374
513343750 -0.039524946 166.07193
513453125 -0.017030375 166.17563
513562500 -0.040659744 166.00697
513671875 -0.021339411 166.17363
513781250 -0.010836733 166.27806
513890625 -0.046188403 165.96919
514000000 -0.047386341 166.13686
514109375 -0.038535018 166.088
514218750 -0.027399257 166.12823
514328125 -0.070391849 166.16243
514437500 -0.039954681 165.98711
514546875 -0.036145259 165.96309
514656250 -0.020340916 165.86377
514765625 -0.0092083765 165.99455
514875000 -0.0085709086 166.0235
514984375 -0.054981355 165.9726
515093750 -0.058051325 165.99716
515203125 -0.027448269 166.0981
515312500 -0.017865719 166.16785
515421875 -0.058453728 166.03281
515531250 -0.034923594 166.01503
515640625 -0.025507353 166.21033
515750000 0.014507264 165.98706
515859375 -0.003692769 166.13443
515968750 -0.034443807 166.11232
516078125 -0.0014028316 166.08096
516187500 -0.048572179 166.09207
516296875 -0.018337101 166.04987
516406250 -0.024706261 166.15012
516515625 -0.032978538 166.21181
516625000 -0.034516387 166.00702
516734375 -0.010550213 165.7868
516843750 -0.033974029 166.09856
516953125 0.0026813603 165.96263
517062500 -0.028530367 165.90402
517171875 -0.028355809 165.98631
517281250 -0.026899129 165.96831
517390625 -0.028367523 166.10393
517500000 -0.039217416 166.06963
517609375 -0.016884116 166.01006
517718750 -0.048813041 166.03783
517828125 -0.048567798 165.87933
517937500 -0.035679467 165.87036
518046875 -0.05852339 165.93474
518156250 -0.061788429 165.93869
518265625 -0.055123091 165.8058
518375000 -0.019499382 166.11949
518484375 -0.011990627 165.77473
518593750 -0.01307333 165.95515
518703125 -0.0030612699 166.00374
518812500 -0.020232221 165.89278
518921875 -0.02418199 165.92577
519031250 -0.025017802 165.7905
519140625 -0.019968277 165.88077
519250000 -0.045760531 165.91653
519359375 -0.012514798 165.9959
519468750 -0.039685104 166.24483
519578125 -0.03557203 165.70233
519687500 -0.0076022674 165.82875
519796875 -0.043066438 165.69806
519906250 -0.0098091271 165.97125
520015625 -0.041468274 165.76491
520125000 -0.043997791 165.87561
520234375 -0.04867525 166.08409
520343750 -0.020301523 166.10471
520453125 -0.034801446 165.93295
520562500 -0.047628898 165.92786
520671875 -0.011606179 165.8671
520781250 -0.048539214 166.13716
520890625 -0.023752164 166.0267
521000000 -0.025608789 165.68707
521109375 -0.029895768 165.93073
521218750 -0.010179389 165.76729
521328125 -0.0071053915 165.79611
521437500 -0.023204602 166.25648
521546875 -0.039997995 165.86755
521656250 -0.03500193 165.70813
521765625 -0.042028293 165.82376
521875000 -0.021542476 165.93999
521984375 -0.026574885 165.96147
522093750 -0.020828083 165.93451
522203125 -0.018876363 165.93495
522312500 -0.017246434 165.89641
522421875 -0.01042933 166.10147
522531250 -0.0061156796 165.91248
522640625 -0.015813764 165.86906
522750000 -0.00077655935 165.69963
522859375 -0.017975017 165.79738
522968750 -0.0033085481 165.6591
523078125 -0.034075029 165.99503
523187500 -0.0019223319 165.95305
523296875 -0.07556054 165.75452
523406250 -0.048183624 166.03247
523515625 -0.050430335 165.83496
523625000 -0.045406632 165.80783
523734375 -0.021726357 165.7531
523843750 -0.044390447 165.71706
523953125 -0.00039772148 165.83231
524062500 -0.02260139 165.84293
524171875 -0.022077562 165.67218
524281250 -0.026868742 166.01079
524390625 -0.029160801 165.74689
524500000 -0.030331666 165.80846
524609375 -0.050804764 165.98746
524718750 -0.01301901 166.13965
524828125 -0.0082401671 165.8318
524937500 -0.029842045 165.90596
525046875 -0.041472048 165.68065
525156250 -0.020935271 165.91582
525265625 -0.028317964 165.91876
525375000 -0.04637691 165.77907
525484375 -0.05044736 165.77736
525593750 -0.0068389182 165.84151
525703125 -0.032869831 166.03397
525812500 -0.06060588 165.98454
525921875 -0.044430785 165.72569
526031250 -0.030597091 165.66649
526140625 -0.013344259 165.84865
526250000 -0.015309677 165.86343
526359375 -0.044121154 165.6739
526468750 -0.051248848 165.80867
526578125 -0.040142071 165.85417
526687500 -0.012849918 165.81642
526796875 -0.03461739 165.64801
526906250 -0.027339881 165.76195
527015625 -0.033737544 165.6338
527125000 -0.02432546 165.85262
527234375 -0.049338236 165.65968
527343750 -0.042084817 165.56483
527453125 -0.052493084 165.88034
527562500 -0.022982961 165.82314
527671875 -0.029511627 165.77426
527781250 -0.032629281 165.83481
527890625 -0.039865602 165.82683
528000000 -0.023900125 165.95186
528109375 -0.043091591 165.66272
528218750 0.019092629 165.85608
528328125 -0.040412284 165.84814
528437500 -0.026443183 165.92506
528546875 -0.024054928 165.9238
528656250 -0.021846071 165.74075
528765625 -0.033828493 165.64267
528875000 -0.10101268 165.72318
528984375 -0.0036713807 165.6568
529093750 -0.011560261 165.68472
529203125 -0.022680664 165.56534
529312500 -0.026373491 165.81273
529421875 -0.03220284 165.62134
529531250 0.023295755 165.63266
529640625 -0.016728589 165.67422
529750000 -0.031931542 165.48573
529859375 -0.025492854 165.69624
529968750 -0.026962832 165.67667
530078125 -0.0095803505 165.45384
530187500 -0.024485923 165.56688
530296875 -0.04183539 165.6602
530406250 -0.061993919 165.70503
530515625 -0.0063441987 165.39812
530625000 -0.029704802 165.57083
530734375 -0.03436967 165.62349
530843750 -0.025334259 165.62373
530953125 -0.0099796047 165.73682
531062500 -0.048376847 165.60692
531171875 -0.054586269 165.64162
531281250 -0.017898349 165.37967
531390625 -0.036208127 165.68678
531500000 -0.037241302 165.48412
531609375 -0.019621899 165.45186
531718750 -0.036240753 165.7231
531828125 0.0011653918 165.54385
531937500 0.0033546083 165.54189
532046875 -0.012870364 165.3243
532156250 -0.01750691 165.49075
532265625 -0.023704169 165.55048
532375000 -0.040438287 165.44875
532484375 -0.015529366 165.46182
532593750 -0.053030472 165.45294
532703125 -0.037295058 165.47516
532812500 -0.018158264 165.73782
532921875 -0.021109495 165.33722
533031250 -0.043256398 165.39758
533140625 -0.018853998 165.38881
533250000 -0.032304976 165.31522
533359375 -0.03760808 165.83269
533468750 -0.037242558 165.35316
533578125 -0.0098698763 165.49739
533687500 -0.0417528 165.74858
533796875 0.0095178597 165.62569
533906250 -0.025527563 165.61374
534015625 -0.015313878 165.4389
534125000 -0.018176969 165.57434
534234375 -0.048433181 165.62866
534343750 -0.016299715 165.70671
534453125 0.0023168602 165.23705
534562500 -0.036732256 165.46315
534671875 -0.027470903 165.29315
534781250 -0.032418184 165.59315
534890625 -0.035363801 165.48177
535000000 -0.062366396 165.54512
535109375 -0.017189553 165.50784
535218750 -0.0048278426 165.61787
535328125 -0.041474078 165.34508
535437500 -0.0094034011 165.61945
535546875 -0.067159258 165.77025
535656250 -0.010524594 165.60661
535765625 -0.015481504 165.60124
535875000 -0.020972049 165.49028
535984375 -0.020658867 165.51039
536093750 -0.032219827 165.67319
536203125 -0.040757641 165.56277
536312500 -0.032875478 165.51753
536421875 -0.032867365 165.57161
536531250 -0.026547965 165.74693
536640625 -0.0047362363 165.29958
536750000 -0.026576934 165.30685
536859375 -0.041289661 165.64784
536968750 -0.026710751 165.57744
537078125 -0.028537869 165.57457
537187500 -0.035300586 165.42307
537296875 -0.0078031542 165.50577
537406250 -0.054771155 165.60637
537515625 -0.080380775 165.56082
537625000 -0.052139033 165.37845
537734375 -0.048018854 165.71634
537843750 0.0095966449 165.35725
537953125 -0.01673772 165.63063
538062500 -0.032767832 165.24057
538171875 0.0025869808 165.34669
538281250 -0.027138878 165.44426
538390625 -0.027920276 165.37267
538500000 -0.042943083 165.22517
538609375 -0.054052562 165.31044
538718750 -0.023886798 165.44083
538828125 -0.04875531 165.36333
538937500 -0.002672893 165.56297
539046875 -0.026057554 165.56157
539156250 -0.022060588 165.39529
539265625 -0.025725488 165.61111
539375000 -0.04245371 165.46249
539484375 -0.026146881 165.39149
539593750 -0.035981175 165.29921
539703125 0.003144081 165.27802
539812500 -0.0097038392 165.63795
539921875 -0.037946679 165.35555
540031250 -0.028724719 165.43871
540140625 -0.042088855 165.45737
540250000 -0.0047651958 165.61345
540359375 -0.02375412 165.39563
540468750 -0.049464654 165.52635
540578125 -0.035328828 165.66412
540687500 -0.026183238 165.3576
540796875 -0.027489571 165.42691
540906250 -0.038338881 165.39296
541015625 -0.038370583 165.41374
541125000 -0.045321733 165.36115
541234375 -0.06828174 165.48688
541343750 -0.04893899 165.35991
541453125 -0.030018771 165.28137
541562500 -0.017077735 165.43341
541671875 -0.022919739 165.46506
541781250 -0.01315761 165.07518
541890625 -0.035835087 165.21671
542000000 -0.0086529832 165.46404
542109375 -0.047291983 165.18033
542218750 -0.024688788 165.43428
542328125 -0.028599203 165.44524
542437500 -0.017206647 165.28618
542546875 -0.051399969 165.33731
542656250 -0.022256365 165.17722
542765625 -0.0014166556 165.37096
542875000 -0.020843431 165.14543
542984375 -0.030104693 165.3495
543093750 -0.038462467 165.30225
543203125 -0.045456715 165.26768
543312500 0.017025985 165.22063
543421875 -0.024970559 165.46687
543531250 -0.003599738 165.25742
543640625 -0.050584048 165.09293
543750000 -0.022232529 165.34853
543859375 -0.057570767 165.29861
543968750 -0.022701599 165.23576
544078125 -0.045716029 165.17961
544187500 -0.03223832 165.41754
544296875 -0.023181411 165.36006
544406250 -0.034913357 165.10312
544515625 -0.043226641 165.14429
544625000 -0.08835084 165.50719
544734375 -0.049042225 165.17416
544843750 -0.032471851 165.31705
544953125 -0.011644049 164.87563
545062500 -0.027668022 165.00336
545171875 -0.021365166 165.20625
545281250 -0.035120573 165.12125
545390625 -0.024534266 165.26424
545500000 -0.050409541 165.35043
545609375 -0.029528059 165.4993
545718750 -0.059366956 165.08899
545828125 -0.033013903 164.99921
545937500 -0.02615789 165.16028
546046875 -0.026131144 165.38689
546156250 -0.051059198 165.11441
546265625 0.0018378658 165.31848
546375000 0.012993122 165.3051
546484375 -0.054912534 165.12392
546593750 -0.0074401461 165.08716
546703125 -0.022257827 165.12808
546812500 -0.019504732 165.10922
546921875 -0.027776157 165.05623
547031250 -0.043041945 165.01898
547140625 0.0061087878 165.09819
547250000 -0.030576685 165.42087
547359375 -0.046241835 165.08191
547468750 -0.02034525 165.21776
547578125 -0.013900765 165.00575
547687500 -0.04649042 165.25565
547796875 -0.01568648 165.22826
547906250 -0.035941761 165.06679
548015625 -0.040342782 165.1328
548125000 -0.031561621 165.00255
548234375 -0.025939567 165.10057
548343750 -0.067373358 165.15218
548453125 -0.012945191 164.91754
548562500 -0.0098908581 165.11534
548671875 -0.0043460093 165.10135
548781250 -0.0007444761 165.08699
548890625 -0.044201601 165.31865
549000000 -0.00033157808 164.87576
549109375 -0.0053090486 165.11186
549218750 -0.035891011 165.19553
549328125 0.00069081568 165.02953
549437500 -0.026372598 165.04024
549546875 -0.014420351 165.02727
549656250 -0.015084259 165.17322
549765625 -0.047987744 165.09914
549875000 -0.011348389 165.06364
549984375 0.0017646147 165.13588
550093750 -0.019646132 164.95039
550203125 -0.051020004 165.00504
550312500 -0.071297929 165.27594
550421875 -0.036691524 165.04066
550531250 -0.014260511 165.06462
550640625 -0.0022943497 165.32948
550750000 -0.057244807 165.30661
550859375 -0.02697874 165.13316
550968750 -0.012052836 165.0881
551078125 -0.043046564 164.99844
551187500 0.012744425 165.02287
551296875 -0.035645459 165.10432
551406250 -0.052175332 165.29677
551515625 -0.0061704726 165.07336
551625000 0.015207384 165.27557
551734375 -0.034922093 164.91475
551843750 -0.059732821 165.1127
551953125 -0.022849875 165.20972
552062500 -0.040508587 165.13422
552171875 -0.0032735101 165.22083
552281250 -0.030196005 165.05354
552390625 -0.057437465 165.24089
552500000 -0.034616351 165.07195
552609375 -0.019890171 164.98601
552718750 -0.050683454 164.91803
552828125 -0.0027764214 165.01978
552937500 -0.02873713 164.99031
553046875 -0.035299707 165.14967
553156250 -0.03997783 165.17661
553265625 -0.043869253 165.23079
553375000 -0.013864242 164.75111
553484375 -0.056096781 164.96039
553593750 -0.032447312 164.97421
553703125 -0.017260008 164.7756
553812500 -0.029478472 165.06001
553921875 -0.02133449 164.96822
554031250 -0.013136479 164.77318
554140625 -0.013238636 164.9187
554250000 -0.044191439 164.92242
554359375 0.017743353 165.09349
554468750 -0.061289575 165.06264
554578125 -0.0397158 165.09262
554687500 -0.018923953 164.9845
554796875 -0.024527317 164.95132
554906250 -0.041435834 164.96196
555015625 -0.023465691 165.23138
555125000 -0.033125423 165.16161
555234375 -0.013166535 164.91188
555343750 -0.018669339 164.95462
555453125 -0.027035411 164.92583
555562500 -0.048653848 164.96991
555671875 -0.02766479 165.01262
555781250 -0.029479634 165.41263
555890625 -0.047793739 164.97792
556000000 0.0099232122 165.07481
556109375 -0.042587657 164.94446
556218750 -0.057931725 164.70253
556328125 -0.020531092 165.00095
556437500 -0.023127265 164.97221
556546875 -0.031723559 165.13956
556656250 -0.059236124 164.9628
556765625 0.0052395426 164.97377
556875000 -0.046480451 164.99901
556984375 -0.037329149 164.81548
557093750 -0.0022146744 164.84084
557203125 -0.050471842 164.98
557312500 -0.0041898265 164.72792
557421875 -0.02240967 164.85231
557531250 -0.0064100353 164.62321
557640625 -0.053824153 164.77788
557750000 -0.002886771 164.75056
557859375 -0.038304787 164.82407
557968750 -0.037378229 164.93803
558078125 -0.023835262 164.9767
558187500 -0.012573781 165.04138
558296875 -7.6328521e-005 164.79674
558406250 -0.0099665979 164.95204
558515625 -0.0089413878 164.98022
558625000 -0.041128725 164.66174
558734375 -0.0044516623 164.91791
558843750 -0.041716363 164.8257
558953125 -0.024693107 164.83049
559062500 -0.039498322 165.02235
559171875 -0.024754401 165.11833
559281250 -0.018268926 164.85332
559390625 -0.020792363 164.7683
559500000 -0.028317852 164.83066
559609375 -0.029766116 164.86189
559718750 0.011971253 165.1292
559828125 -0.063963406 164.7659
559937500 0.0052377256 164.98918
560046875 -0.013049114 164.88826
560156250 -0.031537324 164.79672
560265625 -0.046298962 165.08612
560375000 -0.024905456 165.0088
560484375 -0.033037368 164.95517
560593750 -0.017718317 164.75291
560703125 0.0013984175 164.82558
560812500 -0.0098237023 164.93942
560921875 -0.044943597 164.93372
561031250 -0.0097732535 164.99321
561140625 -0.0042503839 164.99086
561250000 -0.063336164 164.96884
561359375 -0.06238389 165.02631
561468750 -0.015541485 164.84381
561578125 -0.021907926 164.75534
561687500 -0.0099810641 164.86877
561796875 -0.063418962 164.70186
561906250 -0.035586748 164.99608
562015625 0.0010541916 164.69614
562125000 -0.0022990974 164.98775
562234375 -0.025232641 164.8188
562343750 -0.030567724 164.64902
562453125 -0.04217118 164.85312
562562500 -0.024657916 165.11571
562671875 -0.016228046 164.74304
562781250 -0.031153664 164.7204
562890625 -0.014447868 164.69894
563000000 -0.014671884 164.74289
563109375 -0.033624366 164.7979
563218750 -0.056068171 164.87198
563328125 -0.032424513 165.02086
563437500 -0.06438645 164.7821
563546875 -0.030365188 164.60886
563656250 0.0017811485 164.63463
563765625 -0.02884564 164.99014
563875000 -0.078689933 164.6487
563984375 0.0031358465 164.9214
564093750 -0.013033764 164.79582
564203125 -0.043552488 165.05104
564312500 0.00076425291 164.5309
564421875 -0.0087886099 164.70392
564531250 -0.054280713 164.851
564640625 -0.079555266 164.85767
564750000 -0.022889454 164.74025
564859375 -0.026382197 164.79506
564968750 -0.037127431 164.67506
565078125 -0.040771708 164.7979
565187500 -0.016634295 164.64447
565296875 -0.016579797 164.64355
565406250 -0.020900114 164.77655
565515625 -0.025491633 164.78745
565625000 -0.030648833 164.67128
