!Agilent Technologies,E8363C,MY49030273,A.09.42.18
!Agilent E8363C: A.09.42.18
!Date: Tuesday, May 03, 2022 03:54:22
!Correction: S11(Full 2 Port(1,2)) 
!S1P File: Measurement: S11:
# Hz S  dB   R 50
500000000 -0.010754835 -13.291813
500109375 -0.037205644 -13.156499
500218750 0.0069430494 -13.078608
500328125 -0.0017745628 -13.308265
500437500 -0.0012398623 -13.408009
500546875 -0.0050407033 -13.122986
500656250 0.035767578 -13.089068
500765625 0.026566299 -13.24035
500875000 0.014279884 -13.31503
500984375 -0.040247399 -13.391863
501093750 -0.010455188 -13.303342
501203125 -0.0074060126 -13.113254
501312500 -0.0041575618 -13.11423
501421875 0.0049110996 -13.047173
501531250 0.0056151771 -13.267823
501640625 -0.015116276 -13.189597
501750000 0.014721187 -13.143646
501859375 -0.01026148 -13.370453
501968750 -0.025874363 -13.169287
502078125 -0.013746778 -13.262319
502187500 0.024481993 -13.134913
502296875 0.0042160787 -13.11777
502406250 0.019576106 -13.29927
502515625 0.0044428553 -13.158359
502625000 0.0092957644 -13.207972
502734375 -0.030480484 -13.482206
502843750 0.02229687 -13.426738
502953125 -0.014102791 -13.315872
503062500 -0.020401377 -13.133901
503171875 -0.0032957068 -13.151575
503281250 -0.028433671 -13.227072
503390625 -0.0092267636 -13.360386
503500000 0.0062623215 -13.247801
503609375 -0.0013489502 -13.495299
503718750 0.0043378281 -13.333346
503828125 -0.00012546974 -13.387693
503937500 -0.0058528082 -13.109588
504046875 -0.026897023 -13.263257
504156250 -0.011814756 -13.205612
504265625 -0.0050516333 -13.091637
504375000 -0.026571412 -13.071893
504484375 -0.0069278958 -13.472383
504593750 -0.0031309202 -13.427498
504703125 -0.051571403 -13.267383
504812500 0.0033123733 -13.139147
504921875 -0.010244518 -13.413453
505031250 -0.02679044 -13.388885
505140625 0.0048664245 -13.364229
505250000 -0.020140871 -13.294202
505359375 -0.0084305415 -13.551197
505468750 -0.014475817 -13.408517
505578125 -0.003927229 -13.234504
505687500 0.0052489317 -13.363377
505796875 0.022867303 -13.15918
505906250 -0.037231799 -13.226955
506015625 -0.01238501 -13.365108
506125000 0.010907753 -13.416697
506234375 0.0079799248 -13.319819
506343750 0.013547875 -13.269174
506453125 -0.011789322 -13.367813
506562500 0.0087065035 -13.518793
506671875 -0.04980721 -13.567237
506781250 0.0059404182 -13.375528
506890625 -0.021848917 -13.450024
507000000 -0.0063957921 -13.507935
507109375 -0.005555375 -13.437432
507218750 0.0149162 -13.5172
507328125 -0.012892177 -13.289815
507437500 -0.0061936611 -13.377397
507546875 0.027313014 -13.439825
507656250 -0.0084261363 -13.426957
507765625 -0.022561176 -13.359538
507875000 -0.0082556847 -13.043478
507984375 0.0075440938 -13.531733
508093750 0.00022945262 -13.36914
508203125 -0.037232466 -13.291567
508312500 0.0060356501 -13.427521
508421875 -0.0035629221 -13.31839
508531250 0.00042897815 -13.604705
508640625 -0.026068626 -13.534234
508750000 0.01050353 -13.403881
508859375 0.0062576295 -13.652668
508968750 0.0040878179 -13.437651
509078125 -0.02816214 -13.408943
509187500 0.011619545 -13.256857
509296875 -0.03030194 -13.250445
509406250 0.01832032 -13.434537
509515625 -0.015341247 -13.420988
509625000 -0.0052814609 -13.365931
509734375 0.025818158 -13.681467
509843750 0.012419248 -13.591036
509953125 0.02593505 -13.516073
510062500 0.011582578 -13.341121
510171875 0.017761603 -13.50445
510281250 0.02334228 -13.355651
510390625 -0.031430628 -13.354857
510500000 -0.0042998125 -13.845464
510609375 -0.023784164 -13.307102
510718750 -0.0013910388 -13.579756
510828125 -0.024930982 -13.405212
510937500 0.0086933086 -13.732869
511046875 0.028135849 -13.639354
511156250 -0.016525233 -13.536029
511265625 -0.021930818 -13.418245
511375000 0.0086711515 -13.269071
511484375 0.025909934 -13.406751
511593750 -0.013263662 -13.579193
511703125 -0.041813619 -13.893993
511812500 -0.015615535 -13.433255
511921875 -0.021821698 -13.67522
512031250 0.015914394 -13.585735
512140625 -0.012414933 -13.491842
512250000 0.0080908928 -13.400877
512359375 0.0010157304 -13.405019
512468750 0.0041752034 -13.593002
512578125 0.0037710085 -13.698279
512687500 0.015942493 -13.573553
512796875 0.0042604767 -13.283412
512906250 -0.0055561443 -13.403134
513015625 0.025458431 -13.595946
513125000 -0.0061409813 -13.44873
513234375 -0.003849328 -13.710894
513343750 -0.0049446593 -13.596254
513453125 0.022199899 -13.545115
513562500 -0.0068515469 -13.38327
513671875 0.016563939 -13.47037
513781250 0.010766855 -13.675625
513890625 -0.019798787 -13.442047
514000000 -0.015892083 -13.406003
514109375 0.016537469 -13.558633
514218750 -0.0054499903 -13.586611
514328125 0.012973668 -13.520017
514437500 0.038507238 -13.662371
514546875 0.0031294413 -13.423067
514656250 -0.0065587433 -13.520925
514765625 -0.022996061 -13.48827
514875000 0.0024978507 -13.665079
514984375 -0.003082538 -13.708
515093750 0.023774393 -13.605598
515203125 -0.030025464 -13.35574
515312500 0.006930124 -13.480331
515421875 0.0011011856 -13.696424
515531250 -0.01300766 -13.534822
515640625 -0.01419145 -13.761618
515750000 0.011478064 -13.605391
515859375 0.0090799779 -13.632999
515968750 0.024938704 -13.570435
516078125 -0.00023686457 -13.770938
516187500 -0.01588985 -13.572727
516296875 -0.016493963 -13.620537
516406250 0.018242793 -13.625983
516515625 -0.00068588095 -13.482419
516625000 -0.0022548509 -13.441266
516734375 0.0014534423 -13.81318
516843750 -0.019237708 -13.923227
516953125 -0.010421434 -13.625471
517062500 0.063961968 -13.609014
517171875 0.00554574 -13.572534
517281250 -0.029802857 -13.672545
517390625 0.00045838693 -13.413555
517500000 -0.00481511 -13.356673
517609375 0.0026323111 -13.810459
517718750 0.014359431 -13.762218
517828125 0.0070767622 -13.683191
517937500 0.01493917 -13.644908
518046875 -0.017078605 -13.593959
518156250 -0.029925358 -13.568044
518265625 -0.019223521 -13.615297
518375000 0.0010604352 -13.724396
518484375 -0.024362927 -13.477013
518593750 -0.016559783 -13.247748
518703125 0.00031682098 -13.779296
518812500 0.01286426 -13.626959
518921875 -0.026686791 -13.775918
519031250 0.014398536 -13.533166
519140625 -0.0042254808 -13.681968
519250000 -0.0089041675 -13.519684
519359375 -0.0015690617 -13.858826
519468750 -0.01119546 -13.82217
519578125 -0.02283892 -14.064157
519687500 -0.018830732 -13.940147
519796875 0.0081097027 -13.527927
519906250 -0.044141274 -13.607595
520015625 0.00061357266 -13.700662
520125000 -0.038004037 -13.851752
520234375 -0.014502092 -13.773894
520343750 -0.027086517 -13.771031
520453125 -0.0062200227 -13.904393
520562500 -0.025985777 -13.753202
520671875 -0.021892 -13.7575
520781250 -0.02261737 -13.735217
520890625 -0.0023967179 -13.853138
521000000 -0.025236867 -14.031231
521109375 -0.018319381 -13.836788
521218750 0.0035385829 -13.606769
521328125 0.044370778 -13.855768
521437500 -0.01750789 -13.742679
521546875 0.024205567 -13.717428
521656250 -0.024626259 -13.755856
521765625 -0.019329479 -13.838085
521875000 -0.013954785 -13.857705
521984375 -0.0055525671 -13.689794
522093750 0.00025982058 -13.755419
522203125 -0.021109058 -13.826877
522312500 0.015459954 -13.72609
522421875 -0.0069838003 -13.891046
522531250 -0.014496839 -13.664415
522640625 -0.015310391 -13.685655
522750000 -0.024604721 -13.824681
522859375 0.0070466944 -13.783998
522968750 0.0060968022 -13.691607
523078125 -0.027167911 -13.943772
523187500 0.021545725 -13.745497
523296875 -0.00066818995 -13.997977
523406250 0.010738961 -13.919239
523515625 0.0073671751 -13.766312
523625000 0.049730171 -13.937125
523734375 -0.030236941 -13.597316
523843750 0.001976053 -13.68096
523953125 0.0086493604 -13.851668
524062500 -0.0025678014 -13.828108
524171875 -0.015700212 -13.804315
524281250 0.0082978746 -13.879048
524390625 0.014528089 -13.851647
524500000 -0.022690436 -13.820721
524609375 -0.026305307 -13.696987
524718750 0.03002644 -13.925515
524828125 0.012959787 -13.977698
524937500 -0.021889327 -13.944206
525046875 -0.019099256 -13.926342
525156250 -0.029354405 -13.642256
525265625 0.0019932156 -13.708508
525375000 -0.0020640707 -13.769555
525484375 -0.013014021 -13.759123
525593750 0.017979151 -14.047226
525703125 0.021177521 -13.704725
525812500 0.0009493602 -13.847526
525921875 -0.015953938 -13.928543
526031250 0.0056641353 -13.839417
526140625 -0.00045374848 -13.736767
526250000 0.037279699 -13.858794
526359375 -0.021207305 -13.786569
526468750 0.0059478679 -13.782125
526578125 -0.0016111986 -13.947445
526687500 -0.024473758 -14.000021
526796875 0.022010291 -13.811202
526906250 -0.025881249 -13.804838
527015625 0.0015516547 -13.697542
527125000 -0.0063969339 -13.995316
527234375 -0.00096948259 -13.860084
527343750 -0.024746699 -13.838398
527453125 -0.01489529 -13.991492
527562500 -0.0097464863 -13.838468
527671875 0.011096575 -13.894892
527781250 0.025865015 -13.952091
527890625 0.038390268 -13.891302
528000000 -0.016772779 -13.765023
528109375 -0.018655937 -14.024736
528218750 -0.00024436833 -13.873204
528328125 0.0032217952 -14.006241
528437500 -0.015960455 -13.892378
528546875 0.023510979 -13.885526
528656250 -0.013531588 -13.774796
528765625 0.024208833 -14.056211
528875000 -0.029842699 -13.802096
528984375 -0.01708173 -13.803045
529093750 -0.0065713562 -13.993398
529203125 0.028908262 -13.892233
529312500 0.015028656 -14.013601
529421875 -0.0073297131 -14.075678
529531250 0.0027304024 -13.897987
529640625 -0.0091250436 -13.703514
529750000 -0.0026489417 -14.246252
529859375 -0.0045614014 -13.965261
529968750 -0.010773067 -13.914629
530078125 -0.0085970592 -14.060134
530187500 -0.022646736 -14.07585
530296875 -0.02974996 -14.203347
530406250 -0.010162715 -13.951618
530515625 -0.051348101 -13.67894
530625000 0.00097476726 -13.987164
530734375 0.038084645 -13.823022
530843750 0.017083399 -13.988693
530953125 -0.0076624369 -13.905441
531062500 -0.040617704 -14.095514
531171875 -0.011425628 -14.051775
531281250 0.02270864 -14.07347
531390625 -0.0063954527 -13.99828
531500000 -0.046034418 -13.859633
531609375 0.0069202636 -13.905875
531718750 -0.0052551231 -13.953183
531828125 0.015215441 -13.888527
531937500 -0.0029083183 -13.869235
532046875 0.00071516697 -14.092823
532156250 -0.027689748 -14.15871
532265625 -0.004092122 -14.086432
532375000 -0.010361163 -14.195693
532484375 0.0057975878 -14.004025
532593750 0.022404855 -14.204845
532703125 -0.041007195 -14.125462
532812500 -0.024973853 -14.086576
532921875 -0.007918017 -14.139161
533031250 -0.027521709 -14.046065
533140625 -0.013999924 -14.032622
533250000 -0.030993467 -14.000062
533359375 0.0073904889 -14.128967
533468750 0.00022362648 -14.141465
533578125 0.03109578 -13.917395
533687500 -0.00084014609 -14.027313
533796875 0.0013483755 -13.903318
533906250 0.016260607 -14.230747
534015625 0.020955412 -14.00989
534125000 -0.044661913 -13.979236
534234375 -0.0018181378 -14.170044
534343750 -0.0093422402 -14.196792
534453125 -0.010393085 -14.264729
534562500 -0.020531338 -14.108348
534671875 -0.049713217 -14.049392
534781250 0.0010178898 -14.198263
534890625 0.014455461 -13.90998
535000000 0.0032046346 -13.904828
535109375 0.010307846 -13.944723
535218750 -0.03092951 -14.253281
535328125 -0.023673611 -14.208497
535437500 0.0021472143 -14.090177
535546875 -0.013537811 -13.891933
535656250 0.0070335828 -14.119681
535765625 -0.022817893 -14.138073
535875000 -0.0078105927 -14.179489
535984375 -0.024786716 -14.196542
536093750 0.0021150701 -13.890095
536203125 -0.044168182 -14.055331
536312500 0.0093759308 -14.385419
536421875 0.011045167 -14.046404
536531250 0.01715811 -14.085909
536640625 -0.022617906 -14.106577
536750000 0.04796873 -14.254011
536859375 -0.0067857467 -14.168443
536968750 -0.025164641 -14.412574
537078125 -0.041525878 -14.214725
537187500 -0.018275006 -14.084689
537296875 0.0009601264 -14.19386
537406250 -0.02318752 -14.085062
537515625 0.0021439842 -14.020318
537625000 -0.032996442 -14.285099
537734375 0.0091897883 -14.134788
537843750 0.0075868461 -14.201876
537953125 -0.0086313682 -14.230954
538062500 -0.028071731 -14.155416
538171875 -0.042833559 -14.177477
538281250 0.023369063 -14.347536
538390625 0.016358437 -14.286845
538500000 -0.016825771 -14.385417
538609375 -0.001978158 -14.171151
538718750 0.006616137 -14.224458
538828125 0.0025364202 -14.217793
538937500 0.03214689 -14.120955
539046875 0.021337993 -14.323273
539156250 -0.017868036 -14.023189
539265625 0.01541396 -14.105313
539375000 0.0080880579 -14.247868
539484375 0.038472284 -14.17055
539593750 0.01383849 -14.111296
539703125 0.017806185 -14.224194
539812500 0.0072349207 -14.077761
539921875 0.00096185482 -14.085952
540031250 -0.027256088 -13.975103
540140625 0.024362797 -14.401922
540250000 0.0043855472 -14.245571
540359375 0.01681464 -14.315001
540468750 -0.0089130793 -14.2582
540578125 -0.0054477761 -14.164631
540687500 0.0026681444 -14.279031
540796875 0.023973696 -14.227484
540906250 0.0036569864 -14.401826
541015625 0.030693175 -14.282386
541125000 -0.02050847 -14.113258
541234375 0.022168268 -14.068524
541343750 0.016940339 -14.446853
541453125 0.0048654741 -14.277299
541562500 0.018417498 -14.201069
541671875 0.0086738244 -14.215681
541781250 -0.046829067 -14.581594
541890625 -0.00073744223 -14.392682
542000000 0.0019818677 -14.338973
542109375 -0.008882449 -14.497749
542218750 0.040906951 -14.25484
542328125 0.0085586263 -14.500134
542437500 0.015020332 -14.511444
542546875 -0.021984957 -14.340696
542656250 0.018381035 -14.404148
542765625 -0.0029388338 -14.380929
542875000 0.025016921 -14.038792
542984375 -0.0046877759 -14.240692
543093750 -0.014377387 -14.531188
543203125 0.018399347 -14.500637
543312500 0.0098105408 -14.326313
543421875 -0.02443446 -14.594233
543531250 -0.01460414 -14.248494
543640625 0.012438386 -14.358531
543750000 0.03011564 -14.288167
543859375 0.021790184 -14.47292
543968750 -0.0076491437 -14.350584
544078125 -0.015626822 -14.217599
544187500 -0.042835895 -14.393237
544296875 0.014130048 -14.382659
544406250 -0.0058455658 -14.100059
544515625 -0.043784961 -14.460868
544625000 0.0059555159 -14.644686
544734375 -0.0030642259 -14.283531
544843750 -0.010840395 -14.530095
544953125 0.0075758859 -14.308552
545062500 0.010330809 -14.390121
545171875 -0.014940487 -14.342267
545281250 -0.010108077 -14.46252
545390625 -0.016353188 -14.613425
545500000 0.002353126 -14.32936
545609375 -0.0071621295 -14.602765
545718750 -0.016839815 -14.631442
545828125 -0.012957641 -14.497732
545937500 -0.0093938848 -14.517982
546046875 -0.031686489 -14.302493
546156250 0.0191203 -14.530222
546265625 -0.014833446 -14.410123
546375000 -0.0090654762 -14.343689
546484375 0.0067013688 -14.509479
546593750 -0.014444532 -14.433011
546703125 -0.0037798248 -14.605803
546812500 -0.04296419 -14.570527
546921875 -0.017385684 -14.503402
547031250 0.0039491085 -14.133003
547140625 0.0040512877 -14.389525
547250000 -0.0038728148 -14.53807
547359375 0.0035913414 -14.404573
547468750 0.0085392063 -14.459345
547578125 0.0070294836 -14.428025
547687500 0.020155042 -14.517847
547796875 0.013283975 -14.391723
547906250 -0.035758562 -14.349736
548015625 -0.018014064 -14.66811
548125000 0.019140536 -14.435634
548234375 0.00084303453 -14.591228
548343750 -0.006065608 -14.311537
548453125 0.013598475 -14.530751
548562500 -0.007473967 -14.477945
548671875 0.0030750979 -14.520936
548781250 0.0049453122 -14.299392
548890625 -0.015034083 -14.3859
549000000 0.036513377 -14.618504
549109375 -0.00040885125 -14.506185
549218750 0.015899401 -14.461086
549328125 0.00073519663 -14.472247
549437500 -0.0015972885 -14.333026
549546875 -0.0043120934 -14.456066
549656250 0.0028105825 -14.554683
549765625 0.0041473247 -14.532201
549875000 -0.0283178 -14.255114
549984375 -0.017347729 -14.428319
550093750 0.020539792 -14.638279
550203125 0.0011055627 -14.442975
550312500 0.0078027868 -14.478099
550421875 -0.015453655 -14.71263
550531250 -0.018976897 -14.361339
550640625 0.00077117328 -14.610323
550750000 -0.010745346 -14.573107
550859375 -0.0062522846 -14.541768
550968750 0.034353327 -14.689478
551078125 -0.0018997168 -14.680349
551187500 0.0047997688 -14.539796
551296875 -0.023504339 -14.424502
551406250 0.011309091 -14.506021
551515625 -0.038731761 -14.579934
551625000 0.034807805 -14.603054
551734375 0.006873088 -14.445315
551843750 -0.011263253 -14.622549
551953125 0.0029252949 -14.337787
552062500 -0.0012690298 -14.579321
552171875 -0.032080013 -14.725746
552281250 0.0011576652 -14.822947
552390625 0.016676081 -14.594662
552500000 -0.013429808 -14.511859
552609375 -0.019695137 -14.603351
552718750 0.019023241 -14.471392
552828125 -0.014602581 -14.648652
552937500 -0.0042133499 -14.473461
553046875 -0.013455423 -14.534108
553156250 -0.024387699 -14.672899
553265625 -0.00055121368 -14.547941
553375000 -0.0037359279 -14.603499
553484375 0.014660393 -14.644753
553593750 0.0031432372 -14.802229
553703125 -0.010882866 -14.663344
553812500 0.036244687 -14.59301
553921875 -0.00060135784 -14.451299
554031250 -0.012973349 -14.76941
554140625 -0.026675416 -14.688469
554250000 0.0068046967 -14.479842
554359375 -0.015285239 -14.567733
554468750 0.024215575 -14.742478
554578125 -0.014310958 -14.624057
554687500 0.0075348192 -14.491636
554796875 0.017313112 -14.484574
554906250 0.011594457 -14.851123
555015625 0.011538341 -14.663878
555125000 -0.012546388 -14.650743
555234375 0.00038168827 -14.534668
555343750 -0.015679546 -14.721663
555453125 -0.0010772074 -14.578568
555562500 0.027117636 -14.528444
555671875 0.0059015611 -14.697039
555781250 -0.0027098681 -14.533205
555890625 -0.0011037192 -14.464575
556000000 0.0094570862 -14.672423
556109375 0.0034751934 -14.930416
556218750 0.013627839 -14.493794
556328125 0.020995975 -14.660366
556437500 0.012652175 -14.709197
556546875 0.0047540241 -14.469961
556656250 0.026542535 -14.756981
556765625 -0.030728517 -14.786936
556875000 0.014893037 -14.501013
556984375 -0.013824741 -14.778977
557093750 0.0063831112 -14.652899
557203125 -0.0028593005 -14.73829
557312500 -0.018560672 -14.555
557421875 0.013597173 -14.698359
557531250 -0.0065344116 -14.773627
557640625 0.0088359043 -14.606483
557750000 0.0042892881 -14.611062
557859375 -0.0051621455 -14.662427
557968750 -0.0037125144 -14.835928
558078125 -0.033717673 -14.61397
558187500 0.0060731745 -14.728588
558296875 0.011409805 -14.796145
558406250 0.016382171 -14.7174
558515625 -0.0061431457 -14.880016
558625000 -0.021609301 -14.835561
558734375 -0.016650736 -14.66575
558843750 -0.0036458811 -14.784768
558953125 -0.020002203 -14.758731
559062500 -0.0047850078 -15.06361
559171875 -0.02537184 -14.775228
559281250 -0.018586436 -14.834372
559390625 0.01693047 -14.731967
559500000 0.024517246 -14.820858
559609375 0.013887297 -14.779961
559718750 0.044915553 -14.793234
559828125 -0.0023347191 -14.503842
559937500 0.0010383512 -14.832316
560046875 -0.029234832 -14.816403
560156250 -0.0079922676 -14.901019
560265625 0.02187144 -14.926934
560375000 0.021453965 -14.919857
560484375 -0.031123582 -14.730103
560593750 0.00028457062 -14.841564
560703125 -0.0021416284 -14.757268
560812500 -0.018884873 -14.727358
560921875 0.023858692 -14.820538
561031250 0.0042224415 -14.955862
561140625 0.011012512 -14.758811
561250000 -0.018804966 -14.856678
561359375 -0.0028981075 -14.893229
561468750 -0.012971255 -15.002529
561578125 0.021255016 -14.892255
561687500 -0.028862631 -14.829659
561796875 -0.017670156 -14.98889
561906250 -0.015879486 -14.996688
562015625 -3.2989654e-005 -14.806513
562125000 0.010831969 -15.067619
562234375 0.023335557 -14.830541
562343750 0.018585887 -14.803795
562453125 -0.0074285828 -14.885622
562562500 -0.033406906 -14.818743
562671875 0.01471374 -14.951308
562781250 0.044484969 -14.970687
562890625 0.011328625 -15.011292
563000000 -0.03368514 -15.019678
563109375 -0.011569838 -15.000018
563218750 -0.015865583 -14.909623
563328125 -0.0066417917 -14.808337
563437500 -0.0063740346 -14.89722
563546875 -0.002808946 -14.692929
563656250 -0.015887933 -14.869698
563765625 -0.010957658 -14.820061
563875000 0.014736139 -14.873672
563984375 -0.012537246 -14.972318
