!Agilent Technologies,E8363C,MY49030273,A.09.42.18
!Agilent E8363C: A.09.42.18
!Date: Tuesday, May 03, 2022 03:56:45
!Correction: S11(Full 2 Port(1,2)) 
!S1P File: Measurement: S11:
# Hz S  dB   R 50
500000000 -44.016602 -107.81977
500109375 -49.222084 -78.418961
500218750 -51.800694 -146.00928
500328125 -47.690994 -126.66463
500437500 -45.545998 -114.08554
500546875 -49.038879 -107.48631
500656250 -47.946598 -62.901554
500765625 -48.571148 -100.86046
500875000 -48.682758 -90.68647
500984375 -64.398514 -155.84689
501093750 -49.865749 -83.604088
501203125 -44.695549 -104.76083
501312500 -44.621281 -114.54216
501421875 -48.742565 -66.153366
501531250 -45.116898 -127.72152
501640625 -45.977062 -107.25816
501750000 -46.049068 -91.867073
501859375 -44.950581 -96.926476
501968750 -48.349895 -140.82928
502078125 -45.148472 -96.160927
502187500 -48.068058 -95.638405
502296875 -48.992832 -70.565056
502406250 -48.454159 -135.26929
502515625 -46.910103 -166.88431
502625000 -48.629181 -132.71071
502734375 -56.622002 -89.261086
502843750 -47.708591 -128.7122
502953125 -56.24968 -65.941765
503062500 -45.558834 -104.32442
503171875 -46.212273 -141.06877
503281250 -47.433865 -63.424271
503390625 -43.92688 -85.584801
503500000 -43.523781 -81.769981
503609375 -46.366543 -109.34926
503718750 -49.307945 -147.69261
503828125 -48.516483 -89.170692
503937500 -46.799126 -116.28119
504046875 -44.912331 -87.515755
504156250 -45.018631 -88.261299
504265625 -45.351013 -106.88239
504375000 -44.559822 -61.86599
504484375 -46.605221 -130.38815
504593750 -46.973434 -77.014725
504703125 -48.920883 -124.07824
504812500 -49.417141 -86.169617
504921875 -47.445759 -77.130753
505031250 -48.769871 -86.412971
505140625 -45.187534 -90.955437
505250000 -42.740471 -112.64816
505359375 -48.578854 -111.49535
505468750 -46.337109 -97.924355
505578125 -44.049561 -108.65261
505687500 -43.8027 -104.40914
505796875 -44.791439 -128.37212
505906250 -42.506512 -107.23095
506015625 -48.090336 -126.81989
506125000 -47.431339 -137.62453
506234375 -44.519524 -108.77942
506343750 -46.283951 -118.54832
506453125 -48.611946 -93.250023
506562500 -48.242428 -116.30169
506671875 -45.989063 -112.39142
506781250 -47.13979 -65.665237
506890625 -45.35157 -109.40695
507000000 -46.702446 -139.069
507109375 -46.778694 -90.31768
507218750 -44.158859 -92.695938
507328125 -46.39217 -117.49187
507437500 -45.405991 -83.344002
507546875 -41.721272 -96.318893
507656250 -46.890289 -119.7334
507765625 -48.79966 -113.62283
507875000 -47.888401 -82.4133
507984375 -47.886963 -154.38243
508093750 -50.61779 -83.083382
508203125 -49.030952 -64.540916
508312500 -46.632671 -85.409309
508421875 -46.716835 -111.6194
508531250 -47.163399 -135.86168
508640625 -46.7173 -132.57181
508750000 -46.161366 -78.771111
508859375 -46.366657 -76.45565
508968750 -49.327454 -103.17676
509078125 -43.395798 -86.369858
509187500 -50.551758 -135.85483
509296875 -47.560253 -125.22364
509406250 -54.482849 -80.572777
509515625 -44.815701 -77.026009
509625000 -50.825207 -100.23763
509734375 -51.076683 -75.73793
509843750 -44.189205 -111.7672
509953125 -46.214165 -118.81002
510062500 -47.38979 -92.674667
510171875 -53.383736 -135.48299
510281250 -45.170376 -72.100639
510390625 -45.550365 -110.94738
510500000 -49.588406 -88.312111
510609375 -63.532574 -73.859421
510718750 -45.35379 -112.13236
510828125 -52.862858 -57.552425
510937500 -50.478455 -121.0027
511046875 -47.229061 -88.972015
511156250 -45.329948 -140.43948
511265625 -46.762264 -77.482224
511375000 -44.681557 -112.14285
511484375 -55.34507 -82.855034
511593750 -50.309357 -64.746841
511703125 -47.065552 -91.490265
511812500 -46.480938 -106.82933
511921875 -52.613728 -77.087837
512031250 -46.564884 -119.58349
512140625 -49.862957 -91.357292
512250000 -49.059589 -68.260529
512359375 -46.54702 -96.256737
512468750 -48.628834 -136.82228
512578125 -47.637222 -112.00636
512687500 -46.31691 -98.979507
512796875 -44.880322 -127.99651
512906250 -46.499184 -87.722801
513015625 -44.355972 -149.7085
513125000 -47.207047 -132.77449
513234375 -50.402138 -104.32008
513343750 -46.017429 -116.72113
513453125 -47.438408 -116.8149
513562500 -52.120926 -112.21487
513671875 -49.097809 -72.695122
513781250 -46.765881 -95.531227
513890625 -47.691429 -93.537422
514000000 -45.133286 -119.97595
514109375 -46.663673 -70.183479
514218750 -46.260559 -88.068687
514328125 -45.46056 -97.22953
514437500 -44.940369 -112.85766
514546875 -47.750755 -91.220825
514656250 -51.419994 -134.60423
514765625 -45.30138 -96.079262
514875000 -49.369762 -100.10319
514984375 -49.491325 -117.4229
515093750 -54.700294 -133.57581
515203125 -54.73064 -149.68336
515312500 -46.69923 -99.887672
515421875 -47.844364 -124.69359
515531250 -43.81728 -124.78815
515640625 -54.187588 -94.862556
515750000 -45.222477 -143.79413
515859375 -46.505005 -115.1451
515968750 -43.954689 -124.33261
516078125 -48.362198 -110.42551
516187500 -47.394783 -107.39369
516296875 -49.208225 -142.00005
516406250 -48.871567 -89.408745
516515625 -45.507736 -93.872139
516625000 -46.44931 -110.28012
516734375 -48.868687 -94.309479
516843750 -48.592377 -69.116905
516953125 -47.260574 -100.59457
517062500 -48.666393 -68.066376
517171875 -42.776833 -97.540901
517281250 -50.019951 -100.2175
517390625 -50.362885 -67.828758
517500000 -50.247509 -70.166855
517609375 -44.103088 -123.74152
517718750 -53.940418 -109.07327
517828125 -46.134861 -89.141075
517937500 -47.419544 -71.694901
518046875 -45.806892 -114.0678
518156250 -44.744469 -93.048462
518265625 -48.366028 -103.10577
518375000 -44.023697 -109.76595
518484375 -43.305969 -100.0191
518593750 -44.416515 -131.2307
518703125 -56.851402 -97.673882
518812500 -46.935444 -120.59713
518921875 -47.616314 -107.34473
519031250 -66.752457 -146.28998
519140625 -48.37788 -77.831612
519250000 -48.285965 -110.2684
519359375 -54.332153 -133.70091
519468750 -47.764648 -139.38446
519578125 -46.849644 -71.948235
519687500 -48.262875 -100.12213
519796875 -52.524605 -91.971924
519906250 -47.458923 -97.042206
520015625 -50.291058 -93.803459
520125000 -44.442959 -94.022339
520234375 -48.307549 -139.21362
520343750 -46.870609 -121.40724
520453125 -44.292908 -98.519234
520562500 -48.592579 -103.47874
520671875 -46.734978 -93.385643
520781250 -45.564751 -101.00587
520890625 -48.597195 -125.21991
521000000 -46.555584 -138.4483
521109375 -45.30685 -141.58742
521218750 -51.278622 -64.42112
521328125 -48.754807 -123.0156
521437500 -49.095955 -115.79373
521546875 -50.636192 -63.489506
521656250 -47.443577 -125.65905
521765625 -52.83532 -91.973099
521875000 -49.050854 -67.793076
521984375 -45.98843 -113.90569
522093750 -46.009129 -103.34364
522203125 -54.17691 -42.869537
522312500 -44.256966 -102.47005
522421875 -46.570862 -98.719475
522531250 -48.029049 -136.97156
522640625 -46.685829 -88.837212
522750000 -49.186489 -102.28912
522859375 -52.117184 -132.04041
522968750 -47.540329 -134.95262
523078125 -56.1077 -149.60657
523187500 -52.552097 -115.1348
523296875 -49.091259 -118.80955
523406250 -46.773392 -92.49865
523515625 -52.91077 -126.28725
523625000 -42.827465 -112.35477
523734375 -47.934303 -102.51995
523843750 -48.933861 -116.19059
523953125 -45.781681 -97.651154
524062500 -55.774506 -86.398048
524171875 -46.03941 -109.02754
524281250 -53.738873 -95.13723
524390625 -47.48912 -102.74052
524500000 -53.898014 -97.674408
524609375 -45.151554 -107.35407
524718750 -45.883701 -85.180031
524828125 -46.378166 -99.495926
524937500 -49.157383 -115.73731
525046875 -50.112194 -46.133251
525156250 -46.574303 -117.12524
525265625 -54.081036 -106.58751
525375000 -47.327423 -92.850815
525484375 -43.785152 -107.93026
525593750 -43.788651 -110.27856
525703125 -50.729538 -171.1584
525812500 -42.514454 -132.92052
525921875 -53.766968 -164.63582
526031250 -43.398422 -105.35262
526140625 -52.519592 -111.65237
526250000 -48.553818 -92.511681
526359375 -47.231682 -88.003746
526468750 -45.785004 -140.42342
526578125 -47.343952 -107.53413
526687500 -52.679077 -52.791447
526796875 -50.517387 -130.70674
526906250 -50.431744 -123.66783
527015625 -47.019978 -122.82201
527125000 -56.771812 -76.73391
527234375 -47.990032 -98.448509
527343750 -47.914001 -122.44622
527453125 -48.90316 -120.2543
527562500 -51.083496 -133.17107
527671875 -46.388554 -106.03017
527781250 -47.123074 -102.78657
527890625 -45.00111 -105.72668
528000000 -43.571243 -117.89561
528109375 -46.719101 -109.72781
528218750 -44.653179 -80.498489
528328125 -46.409222 -102.93307
528437500 -48.450455 -136.54832
528546875 -51.200706 -104.17934
528656250 -49.162468 -66.718391
528765625 -49.022202 -94.175278
528875000 -48.493309 -118.07291
528984375 -47.337627 -92.195885
529093750 -55.279152 -144.04871
529203125 -45.05418 -75.947121
529312500 -46.083076 -119.54582
529421875 -45.993584 -121.31075
529531250 -48.189419 -113.84975
529640625 -46.116783 -116.48923
529750000 -46.110367 -117.32152
529859375 -51.650135 -155.83188
529968750 -46.269348 -103.15751
530078125 -47.912952 -106.4922
530187500 -45.278339 -78.292953
530296875 -53.877453 -73.780785
530406250 -49.329815 -111.48013
530515625 -44.088326 -106.46892
530625000 -46.876026 -116.14044
530734375 -53.514847 -158.9429
530843750 -51.247276 -141.49126
530953125 -51.804897 -108.88726
531062500 -45.233124 -115.58571
531171875 -44.897797 -110.65081
531281250 -48.898907 -96.793694
531390625 -50.538372 -114.03827
531500000 -47.346653 -109.6961
531609375 -51.8176 -99.409081
531718750 -55.706398 -90.264519
531828125 -45.271088 -121.93964
531937500 -50.538631 -113.71688
532046875 -45.010818 -128.15256
532156250 -46.792599 -80.097733
532265625 -45.928875 -151.50352
532375000 -57.148613 -135.71451
532484375 -46.545769 -98.46032
532593750 -47.100979 -119.1668
532703125 -50.541031 -93.901207
532812500 -47.606606 -106.32613
532921875 -44.11446 -125.25559
533031250 -44.219139 -86.552582
533140625 -45.584995 -129.34938
533250000 -45.154831 -114.91414
533359375 -47.493931 -97.046883
533468750 -49.182346 -161.62892
533578125 -46.935596 -84.83474
533687500 -44.956135 -137.19548
533796875 -49.216278 -105.45904
533906250 -44.227951 -108.66407
534015625 -50.772648 -106.28361
534125000 -48.837448 -141.83948
534234375 -51.374737 -99.487839
534343750 -46.101978 -134.86726
534453125 -50.407955 -124.82325
534562500 -48.287704 -108.61692
534671875 -47.603985 -141.58604
534781250 -49.908005 -110.39377
534890625 -49.192135 -93.390976
535000000 -45.60453 -112.34566
535109375 -47.28574 -126.00724
535218750 -44.428364 -106.06734
535328125 -53.912865 -119.54073
535437500 -48.564613 -99.952164
535546875 -44.89616 -73.449242
535656250 -44.630962 -112.49848
535765625 -48.987003 -134.3786
535875000 -47.309971 -127.19872
535984375 -51.681335 -87.001366
536093750 -50.69775 -126.39231
536203125 -45.592083 -113.27643
536312500 -44.436272 -111.38124
536421875 -46.136341 -100.45844
536531250 -45.464024 -127.31763
536640625 -47.636669 -121.25396
536750000 -47.044575 -83.282639
536859375 -47.329697 -134.48987
536968750 -46.356701 -124.36093
537078125 -48.343662 -107.6968
537187500 -43.566154 -101.89874
537296875 -47.671783 -139.94606
537406250 -48.929447 -91.790024
537515625 -45.106358 -105.62339
537625000 -47.488899 -91.040192
537734375 -44.438999 -109.95671
537843750 -48.691555 -123.24007
537953125 -45.296127 -86.884369
538062500 -52.404671 -104.85937
538171875 -44.965878 -125.28156
538281250 -45.590389 -133.28046
538390625 -46.843994 -145.16788
538500000 -49.708988 -123.37666
538609375 -46.54533 -111.44381
538718750 -45.943459 -101.30996
538828125 -49.941074 -117.44356
538937500 -46.707489 -148.51727
539046875 -50.95525 -98.595779
539156250 -45.470375 -123.01712
539265625 -49.352093 -117.49645
539375000 -43.455307 -135.05534
539484375 -44.152241 -108.21303
539593750 -47.337318 -130.52199
539703125 -48.55212 -122.54239
539812500 -45.145687 -100.89535
539921875 -48.036839 -116.70615
540031250 -49.116245 -128.30902
540140625 -45.193035 -94.52874
540250000 -56.402931 -119.07455
540359375 -46.507442 -65.565468
540468750 -50.341103 -119.93471
540578125 -49.699905 -99.763741
540687500 -57.219658 -100.76085
540796875 -49.363106 -119.7657
540906250 -50.401958 -104.60824
541015625 -51.700825 -126.35889
541125000 -47.349285 -120.79878
541234375 -48.135464 -106.69122
541343750 -42.701374 -121.12164
541453125 -53.340584 -49.128658
541562500 -47.115234 -135.87546
541671875 -45.04335 -122.44231
541781250 -50.972755 -60.672146
541890625 -53.511086 -105.88231
542000000 -50.451145 -123.37867
542109375 -43.421413 -71.111382
542218750 -51.073689 -83.218765
542328125 -44.097782 -101.54942
542437500 -45.215569 -107.87975
542546875 -45.693413 -138.42833
542656250 -46.415707 -141.1644
542765625 -56.893307 -113.83957
542875000 -46.416492 -90.686676
542984375 -45.780624 -107.59814
543093750 -44.759193 -119.53757
543203125 -45.758362 -114.53453
543312500 -49.303272 -52.763042
543421875 -45.979343 -99.379753
543531250 -43.593662 -133.50584
543640625 -48.576237 -91.156166
543750000 -48.320995 -73.652962
543859375 -44.478271 -109.15366
543968750 -45.256706 -90.558128
544078125 -51.111961 -121.35648
544187500 -48.456135 -118.53549
544296875 -46.310673 -93.459557
544406250 -48.102127 -113.79601
544515625 -44.971359 -102.28746
544625000 -47.240795 -95.839676
544734375 -47.453148 -114.62142
544843750 -47.718204 -145.68594
544953125 -51.296928 -98.979355
545062500 -46.392216 -116.58503
545171875 -47.602821 -145.84715
545281250 -52.349781 -149.84187
545390625 -60.759872 -58.947811
545500000 -45.750893 -119.58833
545609375 -49.794434 -105.6761
545718750 -43.932583 -126.80118
545828125 -52.962513 -121.47256
545937500 -45.921856 -136.23607
546046875 -43.279373 -109.9228
546156250 -47.131496 -121.17321
546265625 -45.036961 -115.74652
546375000 -45.178242 -113.66575
546484375 -46.675903 -94.17247
546593750 -44.558598 -110.37415
546703125 -45.653244 -139.9048
546812500 -46.554596 -92.001862
546921875 -47.626942 -111.10886
547031250 -47.003559 -117.17762
547140625 -51.102402 -87.63549
547250000 -48.734287 -102.72588
547359375 -49.62682 -118.77374
547468750 -47.300415 -110.67797
547578125 -51.382938 -83.826775
547687500 -44.224648 -143.83395
547796875 -42.958004 -111.22308
547906250 -48.814659 -137.53355
548015625 -45.723381 -98.082703
548125000 -46.994072 -127.74425
548234375 -46.591942 -96.577805
548343750 -44.040207 -90.533012
548453125 -47.619244 -134.0507
548562500 -45.66095 -92.283821
548671875 -46.238781 -128.9102
548781250 -44.828407 -121.88934
548890625 -54.708244 -118.07467
549000000 -44.545593 -110.58899
549109375 -45.617138 -99.776276
549218750 -46.797783 -92.6632
549328125 -47.482277 -121.82746
549437500 -43.069588 -116.10718
549546875 -44.701797 -96.658859
549656250 -47.893925 -115.0579
549765625 -48.123875 -124.25808
549875000 -47.702473 -145.39711
549984375 -47.96978 -100.68829
550093750 -44.069019 -138.78864
550203125 -45.179428 -98.798042
550312500 -47.720257 -129.6947
550421875 -52.409958 -131.26222
550531250 -47.588593 -116.48049
550640625 -49.808434 -100.67184
550750000 -44.927242 -97.403328
550859375 -46.674171 -101.72812
550968750 -51.379589 -108.59594
551078125 -49.905441 -79.196411
551187500 -44.394478 -80.607224
551296875 -46.650105 -113.26472
551406250 -43.952801 -104.82714
551515625 -48.996426 -108.73833
551625000 -44.000126 -117.95301
551734375 -44.97784 -136.72456
551843750 -47.624504 -151.76979
551953125 -45.618542 -136.49341
552062500 -47.182449 -112.76582
552171875 -45.650768 -117.27927
552281250 -46.170101 -93.087738
552390625 -47.341366 -94.775711
552500000 -48.220276 -146.90512
552609375 -47.819855 -109.51659
552718750 -45.453289 -102.33224
552828125 -45.690388 -101.51347
552937500 -46.921917 -93.693108
553046875 -43.033676 -97.547737
553156250 -47.431717 -119.82977
553265625 -50.905815 -109.18568
553375000 -44.821926 -108.62771
553484375 -45.485218 -106.44241
553593750 -42.706364 -101.61726
553703125 -44.681694 -128.72615
553812500 -47.258366 -123.2477
553921875 -48.051292 -123.20123
554031250 -43.728889 -118.37241
554140625 -46.148071 -141.61772
554250000 -51.767445 -51.065159
554359375 -49.873779 -167.71689
554468750 -50.100376 -60.580242
554578125 -49.188393 -83.927773
554687500 -50.771938 -96.842964
554796875 -46.24461 -73.167442
554906250 -44.649822 -121.13792
555015625 -43.381443 -98.787827
555125000 -45.61412 -109.8671
555234375 -46.703407 -111.58352
555343750 -50.150204 -109.56964
555453125 -46.428616 -109.66597
555562500 -48.839722 -114.76551
555671875 -46.483978 -116.16444
555781250 -43.490196 -98.929924
555890625 -51.240433 -134.10069
556000000 -45.283386 -139.89888
556109375 -42.980896 -105.93333
556218750 -44.274437 -111.34791
556328125 -55.517384 -90.917007
556437500 -48.630436 -80.239761
556546875 -47.349792 -104.63416
556656250 -44.106209 -98.074837
556765625 -44.035076 -100.76349
556875000 -44.40554 -110.7095
556984375 -47.898193 -111.55341
557093750 -46.228939 -124.52285
557203125 -50.248707 -128.69632
557312500 -48.846661 -93.626205
557421875 -48.862778 -126.77047
557531250 -48.699051 -55.422272
557640625 -47.384438 -108.7668
557750000 -47.504177 -85.55957
557859375 -45.283028 -135.96416
557968750 -45.640617 -109.41199
558078125 -47.752171 -59.705402
558187500 -44.969357 -108.43769
558296875 -48.89238 -118.41797
558406250 -47.175282 -103.82261
558515625 -49.116852 -139.96571
558625000 -45.689369 -93.63501
558734375 -45.565933 -109.21956
558843750 -49.408623 -102.15829
558953125 -47.128361 -111.90876
559062500 -45.196831 -94.499962
559171875 -46.532444 -101.56886
559281250 -45.332188 -103.97688
559390625 -46.351727 -97.614227
559500000 -47.083374 -111.56358
559609375 -41.752861 -106.323
559718750 -49.805885 -112.32385
559828125 -57.353474 -142.1362
559937500 -47.395172 -119.20504
560046875 -43.543644 -111.42242
560156250 -44.657478 -126.87149
560265625 -49.841049 -97.426453
560375000 -47.821102 -141.19844
560484375 -49.650311 -134.36354
560593750 -46.836922 -116.13634
560703125 -44.910545 -97.488792
560812500 -47.675678 -84.261398
560921875 -48.933739 -130.7679
561031250 -44.516312 -123.90258
561140625 -49.787582 -112.94766
561250000 -49.557175 -88.057953
561359375 -45.906048 -137.58537
561468750 -48.776184 -144.15437
561578125 -44.532116 -126.58943
561687500 -48.271374 -113.87829
561796875 -47.535027 -117.54508
561906250 -46.717308 -110.7617
562015625 -49.230812 -133.54645
562125000 -52.320721 -114.16528
562234375 -51.158718 -84.096924
562343750 -49.595676 -94.027931
562453125 -48.696152 -94.972801
562562500 -49.574406 -90.028053
562671875 -45.79417 -127.60262
562781250 -45.117329 -98.770973
562890625 -47.08802 -97.185104
563000000 -46.908779 -107.93959
563109375 -51.255917 -101.11538
563218750 -52.995377 -87.691002
563328125 -47.422382 -121.14797
563437500 -43.602917 -107.30717
563546875 -46.655186 -131.09868
563656250 -49.088539 -114.2436
563765625 -48.406204 -126.94504
563875000 -45.985126 -116.39326
563984375 -45.722656 -89.770065
564093750 -45.210052 -112.85761
564203125 -44.653145 -115.71825
564312500 -44.681957 -134.24342
564421875 -48.171139 -109.56937
564531250 -43.511654 -116.7095
564640625 -44.679573 -108.64415
564750000 -48.227604 -109.9226
564859375 -41.177643 -111.01004
564968750 -44.301235 -92.255394
565078125 -43.923496 -123.4651
565187500 -49.501812 -128.62238
565296875 -46.052612 -116.63956
565406250 -48.894932 -119.08703
565515625 -50.46973 -113.30291
565625000 -47.561802 -129.4301
565734375 -53.697258 -129.01141
565843750 -51.103699 -152.30176
565953125 -44.187622 -105.1459
566062500 -50.236637 -65.935966
566171875 -45.487301 -113.47013
566281250 -40.550346 -102.81746
566390625 -51.616009 -90.109314
566500000 -43.97084 -105.36093
566609375 -46.575657 -128.18564
566718750 -48.004478 -137.90852
566828125 -43.033924 -114.45321
566937500 -49.003445 -82.694366
567046875 -45.49762 -121.75132
567156250 -43.365803 -107.95891
567265625 -46.055222 -112.99614
567375000 -45.622032 -84.215126
567484375 -50.97459 -114.17519
567593750 -48.284531 -108.57771
567703125 -46.181862 -117.33048
567812500 -47.470707 -94.501778
567921875 -48.568253 -93.174866
