!Agilent Technologies,E8363C,MY49030273,A.09.42.18
!Agilent E8363C: A.09.42.18
!Date: Tuesday, May 03, 2022 03:56:08
!Correction: S22(Full 2 Port(1,2)) 
!S1P File: Measurement: S22:
# Hz S  dB   R 50
500000000 -0.037856579 -13.09952
500109375 -0.045624305 -13.262986
500218750 -0.035892155 -13.321246
500328125 -0.0087124137 -13.146253
500437500 -0.015502876 -13.292275
500546875 0.022563985 -13.267843
500656250 -0.023683142 -13.180036
500765625 -0.0015856214 -13.443543
500875000 -0.020857289 -13.410365
500984375 0.013140666 -13.185933
501093750 -0.036523379 -13.155005
501203125 -0.00083099742 -13.290914
501312500 -0.027950309 -13.198516
501421875 -0.0040150373 -12.98762
501531250 -0.013333077 -13.339649
501640625 0.00055517658 -13.271719
501750000 -0.0086904652 -13.284142
501859375 -0.025504477 -13.278538
501968750 -0.047071647 -13.411469
502078125 -0.04029065 -13.142102
502187500 -0.044428684 -13.159865
502296875 -0.026126387 -13.149613
502406250 -0.0075201611 -13.345556
502515625 -0.020022418 -12.96188
502625000 -0.01398774 -13.219453
502734375 -0.0017943427 -13.192318
502843750 -0.0085834982 -13.227504
502953125 -0.053261261 -13.269392
503062500 -0.014128916 -13.344224
503171875 -0.061228104 -13.510812
503281250 -0.046484947 -13.157372
503390625 -0.0032715921 -13.342844
503500000 -0.0075097787 -13.3737
503609375 -0.011034038 -13.469638
503718750 -0.021687478 -13.208361
503828125 -0.01221667 -13.470658
503937500 0.01944443 -13.587812
504046875 -0.047095459 -13.346569
504156250 -0.01933643 -13.402614
504265625 -0.036279555 -13.408672
504375000 0.06446708 -13.241041
504484375 -0.010766441 -13.567118
504593750 0.0070812008 -13.676357
504703125 -0.035854034 -13.395553
504812500 -0.015902022 -13.235357
504921875 -0.016181637 -13.313515
505031250 0.0034052446 -13.603802
505140625 -0.013494194 -13.347425
505250000 -0.025740853 -13.232079
505359375 -0.0049920301 -13.459467
505468750 0.0092579145 -13.31008
505578125 -0.0077731349 -13.142104
505687500 0.010733175 -13.357026
505796875 -0.05481369 -13.414516
505906250 -0.0060857902 -13.345315
506015625 -0.024775267 -13.297743
506125000 -0.021655317 -13.426406
506234375 -0.020051641 -13.731213
506343750 -0.013598133 -13.463709
506453125 -0.0097598387 -13.202071
506562500 0.011067889 -13.705854
506671875 -0.040794935 -13.624307
506781250 -0.0081911301 -13.723323
506890625 0.0072912266 -13.366296
507000000 -0.025127487 -13.570469
507109375 0.011598554 -13.530164
507218750 -0.0049279612 -13.466868
507328125 -0.043995876 -13.13078
507437500 -0.014304324 -13.67382
507546875 0.0018935211 -13.29412
507656250 -0.0079242121 -13.467703
507765625 -0.0083873766 -13.498225
507875000 -0.015104393 -13.477018
507984375 -0.023828078 -13.6624
508093750 0.0165102 -13.346262
508203125 0.020019287 -13.684308
508312500 -0.01205118 -13.598845
508421875 0.011822395 -14.000047
508531250 -0.015190041 -13.580082
508640625 -0.0010547769 -13.737217
508750000 -0.012252554 -13.523696
508859375 0.023485256 -13.338912
508968750 0.03132112 -13.28381
509078125 -0.013369622 -13.478048
509187500 0.0010692534 -13.572079
509296875 0.003278825 -13.754129
509406250 -0.010606367 -13.332291
509515625 -0.024129748 -13.615569
509625000 -0.023050712 -13.490451
509734375 0.034965049 -13.581341
509843750 -0.010056561 -13.459475
509953125 0.001850409 -13.367139
510062500 0.014105964 -13.471932
510171875 0.038170334 -13.509664
510281250 -0.021890763 -13.743461
510390625 -0.019448148 -13.676583
510500000 0.019171027 -13.445015
510609375 0.034098707 -13.732633
510718750 -0.0043837135 -13.54677
510828125 -0.030209014 -13.442271
510937500 0.017553603 -13.622491
511046875 0.003194764 -13.425344
511156250 -0.00015318498 -13.503562
511265625 0.028911632 -13.526044
511375000 -0.048905522 -13.605942
511484375 0.0175825 -13.47435
511593750 -0.0090177804 -13.632101
511703125 -0.0023043202 -13.416115
511812500 0.032342117 -13.840192
511921875 -0.022571472 -13.698872
512031250 -0.019260073 -13.306862
512140625 -0.034125015 -13.684795
512250000 -0.02644123 -13.677874
512359375 0.018795693 -13.694798
512468750 0.011916658 -13.567986
512578125 -0.056394845 -13.59796
512687500 0.033244547 -13.751696
512796875 -0.035015635 -13.310523
512906250 -0.010140413 -13.419737
513015625 0.0083370572 -13.678796
513125000 -0.02720785 -13.736883
513234375 -0.0022783722 -13.458901
513343750 -0.0033023097 -13.906917
513453125 -0.025562838 -13.709382
513562500 -0.025612749 -13.503136
513671875 -0.007964544 -13.746728
513781250 -0.025093496 -13.629412
513890625 -0.085037433 -13.792455
514000000 -0.020908903 -13.588679
514109375 0.025526939 -13.551086
514218750 0.0013488079 -13.713241
514328125 -0.019081712 -13.837164
514437500 -0.0085149277 -13.986589
514546875 0.0084476145 -13.506298
514656250 0.017208453 -13.580877
514765625 -0.049926709 -13.512587
514875000 -0.032578822 -13.510715
514984375 0.030477582 -13.563458
515093750 -0.03720779 -13.661352
515203125 -0.018129744 -13.832049
515312500 0.025287086 -13.705106
515421875 -0.017269421 -13.657037
515531250 -0.045947731 -13.655803
515640625 -0.0040502143 -13.516031
515750000 0.028803915 -13.442607
515859375 -0.00089300587 -13.766521
515968750 -0.0029544786 -13.794693
516078125 -0.0035048875 -13.831797
516187500 0.028099773 -13.815451
516296875 0.0097195376 -13.486132
516406250 0.013010526 -13.732405
516515625 -0.0087301778 -13.476544
516625000 0.0065337215 -13.823902
516734375 0.012052608 -13.544279
516843750 -0.0060901134 -13.493365
516953125 0.021645933 -13.431562
517062500 -0.0023556624 -13.47285
517171875 0.023730235 -13.830286
517281250 -0.043218922 -13.823939
517390625 -0.011720228 -13.771136
517500000 -0.021932634 -13.531536
517609375 -0.045804475 -13.855734
517718750 0.023944039 -13.6884
517828125 0.013092972 -13.835505
517937500 -0.014096821 -13.614611
518046875 -0.016363306 -13.607525
518156250 -0.017721858 -13.925984
518265625 0.040188637 -13.81081
518375000 0.018666938 -13.565036
518484375 -0.021646965 -13.87802
518593750 0.0039265705 -13.734515
518703125 -0.043995287 -13.634541
518812500 0.033602741 -13.650937
518921875 -0.0066777566 -13.860853
519031250 -0.01185566 -13.97566
519140625 -0.031148557 -13.766294
519250000 -0.015672995 -13.778236
519359375 -0.072096527 -13.445333
519468750 -0.00085024844 -13.906297
519578125 -0.032611042 -13.807179
519687500 -0.031205477 -14.067228
519796875 -0.030188743 -13.990198
519906250 -0.018802879 -13.940106
520015625 -0.037709273 -13.757374
520125000 0.0044911336 -13.85979
520234375 0.0060328683 -13.931581
520343750 -0.005237598 -13.903735
520453125 0.0061553512 -13.907916
520562500 -0.00047407323 -13.960141
520671875 -0.025094047 -13.942594
520781250 -0.0086236019 -13.823176
520890625 -0.01257863 -13.866467
521000000 -0.027796216 -13.642215
521109375 -0.013231712 -13.790009
521218750 0.0022236889 -14.340153
521328125 -0.024315745 -13.659822
521437500 -0.010147997 -13.844181
521546875 -0.0050338921 -13.807702
521656250 -0.013751316 -13.824162
521765625 0.0094000129 -13.850232
521875000 -0.0054019047 -13.849194
521984375 0.022670051 -13.824689
522093750 0.017755158 -14.083903
522203125 0.028504537 -14.013265
522312500 -0.004762657 -13.914382
522421875 0.010577207 -13.831344
522531250 -0.0068972046 -13.652157
522640625 -0.014138727 -13.990243
522750000 0.021829914 -13.930984
522859375 0.023446584 -13.7862
522968750 -0.012643009 -13.976925
523078125 0.011269364 -14.023812
523187500 -0.0029388939 -13.957176
523296875 -0.017943326 -14.040156
523406250 0.023255931 -13.55483
523515625 -0.027620561 -13.776374
523625000 0.017470025 -13.968236
523734375 -0.0010499085 -13.75602
523843750 0.00079345284 -13.753181
523953125 -0.016042901 -13.718944
524062500 0.0016995732 -14.270618
524171875 0.010884284 -13.721926
524281250 -0.035629794 -13.706742
524390625 -0.03850136 -14.037857
524500000 0.013513139 -13.979261
524609375 0.014690737 -13.957536
524718750 -0.0008798255 -13.717417
524828125 0.016506871 -13.916629
524937500 0.02327078 -13.985801
525046875 -0.010213555 -13.982453
525156250 -0.029860822 -14.019205
525265625 -0.01447398 -13.985624
525375000 0.0017636793 -13.886751
525484375 -0.02192137 -13.868564
525593750 -0.011987457 -13.913436
525703125 -0.029716162 -14.100373
525812500 0.0051971041 -13.823435
525921875 -0.007373157 -14.130198
526031250 -0.025557382 -13.929523
526140625 0.015650298 -14.075074
526250000 0.00095930917 -13.983999
526359375 -0.036657356 -13.813249
526468750 -0.019512221 -13.791643
526578125 0.016880719 -13.999085
526687500 -0.044523127 -14.156043
526796875 0.0049629197 -14.075562
526906250 -0.0023878997 -13.877521
527015625 0.01057518 -13.788591
527125000 -0.048114318 -13.752318
527234375 -0.043292005 -14.066159
527343750 0.025342707 -13.952755
527453125 0.0037835082 -14.03127
527562500 -0.019212291 -13.765954
527671875 -0.019520348 -13.894282
527781250 -0.023547024 -14.119401
527890625 -0.0035301375 -13.967896
528000000 -0.044154651 -14.063488
528109375 0.019342005 -14.235113
528218750 0.0092673954 -13.994485
528328125 0.0039109043 -14.002445
528437500 -0.011178408 -14.024957
528546875 -0.021704692 -14.197865
528656250 0.0036789349 -13.788088
528765625 -0.0096630678 -13.714195
528875000 0.019832568 -13.848425
528984375 0.014116222 -13.859312
529093750 -0.025462091 -13.845658
529203125 -0.021839017 -13.803725
529312500 -0.032615535 -13.919381
529421875 -0.0088578071 -13.997561
529531250 -0.010669099 -14.106617
529640625 -0.016106559 -14.121948
529750000 -0.017227529 -13.885959
529859375 0.018482259 -13.885025
529968750 -0.041879486 -13.917383
530078125 -0.017265502 -14.069179
530187500 -0.021088485 -13.971974
530296875 0.011635567 -14.015213
530406250 0.011991695 -14.123981
530515625 0.017534204 -13.937005
530625000 -0.032928266 -13.878435
530734375 -0.022484461 -13.840477
530843750 -0.025481962 -14.125152
530953125 -0.0010676834 -13.999225
531062500 -0.0023120306 -13.94887
531171875 -0.024156598 -14.071861
531281250 -0.0015488517 -14.041118
531390625 0.0012585354 -14.183047
531500000 -0.02299848 -14.122429
531609375 0.028719334 -14.226865
531718750 0.02781049 -14.309115
531828125 0.0085908789 -13.981948
531937500 -0.012987959 -14.059403
532046875 0.047909833 -14.16019
532156250 0.012561314 -14.241222
532265625 -0.012986407 -14.148149
532375000 -0.065036632 -14.08602
532484375 0.0007018139 -14.096398
532593750 0.012505444 -14.268259
532703125 0.024141459 -14.403713
532812500 -0.030762685 -14.178648
532921875 -0.039554071 -14.407887
533031250 0.019796781 -14.002393
533140625 0.035289016 -14.254957
533250000 0.017343182 -14.314797
533359375 0.0063466583 -14.323463
533468750 -0.028521946 -14.11281
533578125 0.015500307 -14.143088
533687500 -0.01269065 -14.132345
533796875 0.032189403 -14.020947
533906250 -0.025784699 -14.047743
534015625 -0.013273492 -14.462583
534125000 -0.027266804 -14.151979
534234375 -0.0098369271 -14.141659
534343750 -0.0090458971 -14.253515
534453125 -0.022448564 -14.094061
534562500 0.0023946946 -14.229376
534671875 -0.019908264 -14.235119
534781250 0.010051567 -14.097414
534890625 -0.0082144905 -14.121816
535000000 0.0080868658 -14.071062
535109375 -0.017239435 -14.32229
535218750 -0.0035839563 -13.951427
535328125 -0.0089230817 -14.439901
535437500 0.0025885277 -14.270375
535546875 -0.012219452 -14.265277
535656250 -0.0066458783 -14.233416
535765625 0.0049727871 -14.234637
535875000 0.012520351 -14.241295
535984375 -0.0045649372 -13.96671
536093750 -0.0090634236 -14.273943
536203125 -0.01015439 -14.427122
536312500 -0.023447385 -14.115513
536421875 -0.0049320641 -14.450784
536531250 -0.016714005 -14.390839
536640625 0.00028679753 -14.062939
536750000 -0.030370794 -14.114446
536859375 -0.024601724 -14.059227
536968750 -0.020428667 -14.212257
537078125 -0.0074748462 -14.175459
537187500 -0.017099263 -14.013424
537296875 0.0073485919 -14.200562
537406250 -0.00022484548 -14.019999
537515625 -0.032584887 -14.283077
537625000 0.007432085 -14.264617
537734375 -0.030959403 -14.166749
537843750 -0.012237255 -13.95406
537953125 -0.021081286 -14.226291
538062500 -0.011994009 -13.994806
538171875 -0.01252804 -14.326207
538281250 -0.0076199812 -14.20033
538390625 -0.0070489077 -14.238489
538500000 -0.004584753 -14.098593
538609375 -0.030833188 -14.262336
538718750 0.01407605 -14.076273
538828125 0.02497421 -14.235069
538937500 -0.018951619 -14.348253
539046875 -0.0032885468 -14.274572
539156250 0.03239201 -14.282834
539265625 0.0017930773 -14.07834
539375000 -0.01565418 -14.384384
539484375 -0.010251219 -14.162159
539593750 -0.0097788479 -14.231801
539703125 -0.010706181 -14.154903
539812500 -0.036037579 -14.137816
539921875 -0.013317977 -14.099707
540031250 0.015561312 -14.502821
540140625 0.0088761561 -14.346669
540250000 -0.026654873 -14.133439
540359375 -0.013335 -14.122633
540468750 -0.03873546 -14.515749
540578125 -0.020738665 -14.266741
540687500 -0.012955539 -14.359303
540796875 -0.015144187 -14.063872
540906250 -0.018684927 -14.424498
541015625 0.019652588 -14.577511
541125000 0.031308215 -14.139162
541234375 -0.018168882 -14.543693
541343750 0.012344328 -14.417363
541453125 0.024897084 -14.173718
541562500 -0.028631466 -14.518199
541671875 0.0045509748 -14.373822
541781250 0.001412791 -14.255651
541890625 -0.011239764 -14.169046
542000000 -0.020615749 -14.374269
542109375 -0.0020040525 -14.401305
542218750 0.012173479 -14.332374
542328125 -0.036181837 -14.27078
542437500 0.0087640481 -14.261332
542546875 -0.056677073 -14.379169
542656250 -0.030946832 -14.476091
542765625 0.030664636 -14.374537
542875000 -0.0059316307 -14.339721
542984375 -0.017841075 -14.184009
543093750 -0.011964868 -14.541162
543203125 -0.03066265 -14.549253
543312500 0.021374311 -14.408403
543421875 -0.0094269235 -14.043712
543531250 -0.025071625 -14.434376
543640625 0.044525359 -14.261604
543750000 0.0093870489 -14.502188
543859375 -0.038053971 -14.838994
543968750 -0.012832492 -14.302526
544078125 0.032299001 -14.506147
544187500 0.030209797 -14.538234
544296875 0.025882713 -14.413155
544406250 -0.050511882 -14.448859
544515625 -0.0048398529 -14.538041
544625000 -0.052998737 -14.292841
544734375 -0.013400125 -14.479479
544843750 -0.028036114 -14.510005
544953125 -0.0051387046 -14.529537
545062500 0.014337148 -14.501021
545171875 -0.035317805 -14.62393
545281250 -0.0038192486 -14.525217
545390625 -0.01344617 -14.48975
545500000 -0.0012144312 -14.581479
545609375 0.011520823 -14.763265
545718750 -0.011077579 -14.424241
545828125 0.0034328976 -14.376408
545937500 -0.01931015 -14.513742
546046875 0.00031949699 -14.428926
546156250 -0.0051243268 -14.492837
546265625 -0.016067034 -14.594589
546375000 -0.013979096 -14.415094
546484375 -0.0029645136 -14.370307
546593750 -0.0081876973 -14.636201
546703125 0.037569158 -14.840517
546812500 -0.036777403 -14.305074
546921875 -2.4660794e-005 -14.663537
547031250 0.0055104438 -14.301208
547140625 -0.013383654 -14.456326
547250000 -0.0060525397 -14.377892
547359375 -0.0073290598 -14.673195
547468750 0.015972089 -14.683946
547578125 -0.0020744537 -14.422006
547687500 -0.011177232 -14.655206
547796875 0.030248269 -14.539076
547906250 -0.020095596 -14.574094
548015625 -0.021770729 -14.557882
548125000 0.019872628 -14.428136
548234375 0.016990673 -14.255275
548343750 -0.01932296 -14.650939
548453125 -0.0017762254 -14.684443
548562500 0.014744659 -14.392576
548671875 -0.0093614496 -14.641932
548781250 -0.011582439 -14.7663
548890625 -0.02619837 -14.429477
549000000 0.014424659 -14.348278
549109375 -0.018399347 -14.682086
549218750 -0.010282996 -14.766259
549328125 -0.0091145569 -14.265697
549437500 -0.00026725422 -14.743122
549546875 -0.040512826 -14.486654
549656250 -0.012269272 -14.482581
549765625 0.018607112 -14.628189
549875000 -0.0095143868 -14.730174
549984375 0.026535321 -14.616035
550093750 0.019678645 -14.677677
550203125 0.01228231 -14.497106
550312500 0.010672872 -14.556385
550421875 0.020024786 -14.725074
550531250 0.0011114652 -14.612693
550640625 -0.020152112 -14.507105
550750000 0.018688435 -14.402316
550859375 -0.0090054525 -14.826491
550968750 -0.013674059 -14.622098
551078125 0.0025781055 -14.500572
551187500 0.0039688149 -14.619229
551296875 -0.020781735 -14.3126
551406250 0.013880497 -14.733006
551515625 0.026808664 -14.641856
551625000 -0.025107548 -14.589398
551734375 -0.010159777 -14.681628
551843750 -0.0011219612 -14.650751
551953125 9.6185395e-005 -14.691609
552062500 0.0062774764 -14.504312
552171875 -0.013811337 -14.604469
552281250 -0.035776433 -14.373995
552390625 0.013758349 -14.697574
552500000 0.0086627509 -14.586528
552609375 0.01175222 -14.545301
552718750 -0.030388281 -14.626949
552828125 0.022271853 -14.543165
552937500 -0.048955124 -14.538471
553046875 0.022836227 -14.56997
553156250 -0.049471576 -14.60359
553265625 -0.033867754 -14.656599
553375000 0.0089331307 -14.975167
553484375 0.0089612566 -14.599521
553593750 -0.016122749 -14.665652
553703125 0.019276828 -14.788852
553812500 0.013090573 -14.749557
553921875 0.004970951 -14.427172
554031250 -0.018898483 -14.734877
554140625 -0.020744868 -14.41507
554250000 -0.026978984 -14.776052
554359375 -0.010052262 -14.537724
554468750 -0.02277817 -14.605231
554578125 -0.028148286 -14.60955
554687500 -0.0043704505 -14.451603
554796875 -0.011434778 -14.69263
554906250 0.015427195 -14.711195
555015625 0.0063194018 -14.537636
555125000 0.005940875 -14.882421
555234375 -0.0205274 -14.88003
555343750 -0.027811076 -14.727247
555453125 0.033806618 -14.628535
555562500 0.01755086 -14.618994
555671875 -0.044685252 -14.474549
555781250 -0.008716234 -14.703818
555890625 -0.01779592 -14.466947
556000000 0.0041126255 -14.61697
556109375 -0.0047561587 -14.419733
556218750 -0.0045482046 -14.774864
556328125 -0.017228909 -14.82704
556437500 -0.029150877 -14.645593
556546875 -0.00080295693 -14.926415
556656250 0.017030546 -14.757242
556765625 0.013349864 -14.541001
556875000 0.0145762 -14.808275
556984375 0.011692262 -14.627716
557093750 -0.045576222 -14.780846
557203125 -0.014513523 -14.70594
557312500 -0.031419471 -14.605117
557421875 0.055762272 -14.890378
557531250 -0.040038861 -14.803918
557640625 -0.0040648314 -14.706331
557750000 0.0016825601 -14.865439
557859375 -0.037168577 -15.00584
557968750 -0.027106563 -14.958003
558078125 -0.025293142 -14.867833
558187500 -0.019962206 -15.059647
558296875 -0.011188571 -14.931593
558406250 0.02042624 -14.779073
558515625 -0.009766574 -14.774299
558625000 0.02478769 -14.938108
558734375 -0.037122749 -14.754017
558843750 -0.016274698 -15.023387
558953125 0.0072337631 -14.661716
559062500 -0.01306338 -14.855221
559171875 -0.018128755 -15.051799
559281250 -0.014688768 -14.755584
559390625 -0.00215155 -14.743643
559500000 -0.02959477 -14.795394
559609375 0.019576689 -14.653507
559718750 -0.026759218 -14.801056
559828125 -0.0041847206 -14.913612
559937500 0.015877841 -15.051138
560046875 -0.010813378 -14.819393
560156250 0.0029686585 -14.852907
560265625 0.037757095 -14.597587
560375000 0.0010926703 -14.801598
560484375 -0.0041165473 -14.535831
560593750 0.0013010266 -14.964798
560703125 -0.0022006298 -14.974335
560812500 -0.021814223 -14.788061
560921875 0.02496117 -15.00521
561031250 0.044372577 -15.039875
561140625 -0.0038570396 -14.84232
561250000 -0.012487148 -14.854343
561359375 -0.0084597478 -14.693346
561468750 0.010496022 -14.63627
561578125 0.0082122916 -14.953758
561687500 0.021001227 -14.872849
561796875 0.020714192 -14.76948
561906250 -0.017549505 -15.008177
562015625 -0.037729613 -14.922618
562125000 -0.023080517 -14.779799
562234375 -0.016065082 -14.740206
562343750 -0.029799782 -14.91628
562453125 -0.01029747 -14.981723
562562500 -0.022655573 -14.950364
562671875 -0.017639805 -14.488935
562781250 0.041268613 -14.994677
562890625 -0.049434025 -14.664952
563000000 -0.009933278 -14.88617
563109375 0.0043003228 -14.642619
563218750 -0.023026004 -14.822108
563328125 -0.037046961 -14.884514
563437500 -0.026090559 -14.765373
563546875 -0.0075203055 -14.785568
563656250 -0.0042589121 -14.869507
563765625 -0.051295448 -14.988244
563875000 -0.0052257758 -14.822802
563984375 -0.032053012 -14.83512
