!Agilent Technologies,E8363C,MY49030273,A.09.42.18
!Agilent E8363C: A.09.42.18
!Date: Tuesday, May 03, 2022 03:57:34
!Correction: S22(Full 2 Port(1,2)) 
!S1P File: Measurement: S22:
# Hz S  dB   R 50
500000000 -46.324848 -102.20336
500109375 -44.097584 -110.46
500218750 -49.481052 -73.896019
500328125 -41.781799 -122.54914
500437500 -58.248173 22.358345
500546875 -43.077991 -116.6317
500656250 -52.423054 -98.364334
500765625 -43.111046 -121.82692
500875000 -41.758705 -102.78764
500984375 -46.602421 -130.752
501093750 -47.377991 -109.14655
501203125 -53.09071 -92.110619
501312500 -45.16362 -79.121292
501421875 -45.394138 -126.33096
501531250 -43.16943 -98.898254
501640625 -45.97654 -124.05505
501750000 -48.488987 -91.120789
501859375 -47.107967 -107.89082
501968750 -44.797565 -117.18031
502078125 -43.104568 -107.16749
502187500 -52.205658 -112.58723
502296875 -57.297905 -92.44249
502406250 -44.80648 -135.17465
502515625 -52.360359 -97.512177
502625000 -42.147209 -81.513947
502734375 -49.477139 -111.62358
502843750 -45.083366 -133.81839
502953125 -44.492722 -129.55371
503062500 -47.101776 -58.077763
503171875 -47.411648 -137.87114
503281250 -44.503429 -117.04646
503390625 -51.624592 -98.030853
503500000 -50.459934 -122.36757
503609375 -42.843056 -104.33673
503718750 -46.284168 -68.594345
503828125 -46.120216 -98.645081
503937500 -46.115875 -78.13208
504046875 -45.453197 -155.70273
504156250 -46.352627 -89.988136
504265625 -45.371113 -121.00906
504375000 -50.864285 -76.978203
504484375 -47.131565 -122.84132
504593750 -44.776043 -86.755569
504703125 -45.155624 -126.41354
504812500 -46.829205 -114.35296
504921875 -45.847679 -150.64159
505031250 -46.113052 -110.93771
505140625 -51.655846 -72.53421
505250000 -46.809811 -144.57928
505359375 -48.958717 -117.63943
505468750 -48.329483 -56.367332
505578125 -52.487671 -121.28901
505687500 -47.943962 -110.75965
505796875 -45.65176 -109.54619
505906250 -45.913284 -115.12492
506015625 -45.118599 -99.986786
506125000 -46.024509 -71.551491
506234375 -45.029839 -101.22329
506343750 -49.168457 -101.49027
506453125 -45.539581 -108.10844
506562500 -43.279472 -116.99285
506671875 -44.454773 -116.53928
506781250 -47.927635 -84.331306
506890625 -47.803783 -112.29166
507000000 -46.774097 -100.28502
507109375 -45.738461 -95.706741
507218750 -47.296501 -100.20439
507328125 -42.762302 -100.26486
507437500 -51.249939 179.80234
507546875 -44.728233 -131.923
507656250 -43.777489 -99.465393
507765625 -53.439381 -73.778786
507875000 -43.261456 -70.581841
507984375 -47.678364 -47.012508
508093750 -46.205566 -93.35788
508203125 -48.463829 -117.33335
508312500 -55.54723 -131.36969
508421875 -51.279488 -108.00751
508531250 -45.118977 -110.12077
508640625 -48.14769 -125.20173
508750000 -44.358204 -113.12432
508859375 -50.675247 -94.09993
508968750 -60.890278 -120.73519
509078125 -48.429699 -115.99332
509187500 -47.008148 -113.06875
509296875 -45.337933 -114.00673
509406250 -42.800476 -77.399269
509515625 -46.595455 -91.490425
509625000 -48.649452 -113.55194
509734375 -44.691113 -123.25228
509843750 -47.323074 -139.74432
509953125 -46.790409 -98.400528
510062500 -43.388832 -128.71536
510171875 -45.102165 -104.68806
510281250 -45.271923 -89.700203
510390625 -42.404797 -124.58836
510500000 -49.022568 -109.24911
510609375 -41.641338 -117.13348
510718750 -47.201038 -101.72709
510828125 -45.739555 -84.120689
510937500 -49.13549 -81.009628
511046875 -50.43568 -99.337097
511156250 -46.083195 -103.9304
511265625 -45.19989 -101.04288
511375000 -48.414055 -91.612335
511484375 -45.500065 -100.34254
511593750 -47.719868 -104.6385
511703125 -45.071293 -110.17069
511812500 -57.393097 -114.91905
511921875 -46.135319 -150.38789
512031250 -44.042023 -88.656288
512140625 -45.334179 -94.51548
512250000 -45.742054 -121.98919
512359375 -50.799484 -81.897186
512468750 -43.50481 -134.8228
512578125 -41.741089 -132.67172
512687500 -45.890053 -128.54608
512796875 -45.818851 -146.43414
512906250 -49.427258 -124.47587
513015625 -43.706551 -110.22294
513125000 -44.438789 -134.26306
513234375 -46.479164 -131.46687
513343750 -53.025623 -111.43719
513453125 -43.470028 -78.130707
513562500 -43.175285 -109.2691
513671875 -41.992256 -70.999969
513781250 -43.381741 -91.120552
513890625 -50.60984 -97.130264
514000000 -44.366795 -112.7154
514109375 -46.815578 -100.9877
514218750 -43.539951 -106.0767
514328125 -47.441269 -156.85229
514437500 -42.262581 -78.590424
514546875 -41.681332 -114.81279
514656250 -43.90662 -124.57902
514765625 -43.58765 -132.51848
514875000 -52.329723 -89.946983
514984375 -51.406174 -139.38208
515093750 -45.146069 -95.432114
515203125 -47.86718 -65.201645
515312500 -44.267662 -105.88837
515421875 -45.61689 -98.676682
515531250 -49.824501 -139.39252
515640625 -47.283009 -142.5685
515750000 -47.88393 -93.940323
515859375 -45.946095 -103.91007
515968750 -45.847462 -86.144325
516078125 -43.829697 -120.15187
516187500 -51.032139 -62.477612
516296875 -42.734043 -104.31702
516406250 -43.349354 -88.596519
516515625 -50.422188 -116.86665
516625000 -46.512768 -114.16784
516734375 -47.534115 -90.836639
516843750 -49.826435 -108.90765
516953125 -44.381218 -97.6828
517062500 -44.426163 -104.65303
517171875 -48.032917 -114.58667
517281250 -44.284599 -100.3298
517390625 -45.223423 -95.974892
517500000 -45.696594 -151.28188
517609375 -44.198997 -104.43269
517718750 -46.801296 -105.45116
517828125 -46.913372 -56.351437
517937500 -45.424492 -114.08622
518046875 -45.429497 -107.54346
518156250 -47.059189 -112.68787
518265625 -46.684658 -98.061058
518375000 -47.316589 -127.2459
518484375 -43.297798 -88.342018
518593750 -46.427364 -103.09822
518703125 -44.181789 -120.95996
518812500 -42.951519 -101.71545
518921875 -45.396305 -113.04607
519031250 -46.780033 -142.1796
519140625 -48.431408 -109.81603
519250000 -47.940723 -137.55742
519359375 -47.298729 -107.3694
519468750 -43.818905 -85.571259
519578125 -46.382126 -142.80779
519687500 -43.843567 -92.53141
519796875 -48.050358 -87.92234
519906250 -45.181599 -90.541252
520015625 -46.699776 -99.509499
520125000 -50.364395 -115.28352
520234375 -44.212799 -104.18809
520343750 -51.264034 -99.295135
520453125 -45.732647 -111.2085
520562500 -48.614689 -57.453098
520671875 -47.083996 -93.65583
520781250 -47.730652 -98.37912
520890625 -42.820301 -85.52066
521000000 -47.648827 -95.263863
521109375 -47.766838 -97.941521
521218750 -45.020866 -128.94431
521328125 -45.204853 -113.24841
521437500 -49.126896 -114.59381
521546875 -44.534031 -111.04446
521656250 -49.162594 -91.606033
521765625 -48.092529 -83.98011
521875000 -48.472958 -93.334045
521984375 -42.562557 -112.97147
522093750 -51.982487 -90.48465
522203125 -43.788448 -109.35686
522312500 -43.448845 -71.83606
522421875 -41.94902 -91.330551
522531250 -49.898048 -114.47815
522640625 -45.457218 -99.605019
522750000 -44.794323 -115.71239
522859375 -45.561016 -106.41893
522968750 -53.909725 -137.71861
523078125 -47.679234 -119.47931
523187500 -46.262753 -101.58062
523296875 -46.294846 -106.60686
523406250 -45.946518 -129.30875
523515625 -53.574837 -122.67976
523625000 -48.491726 -126.59834
523734375 -44.757107 -129.60472
523843750 -42.32999 -112.41743
523953125 -47.490322 -74.124557
524062500 -52.693848 -101.40607
524171875 -42.264614 -108.79426
524281250 -45.656345 -111.51918
524390625 -53.426865 -137.08258
524500000 -46.475285 -132.26198
524609375 -45.290394 -112.02158
524718750 -44.189972 -91.258148
524828125 -48.487206 -112.17613
524937500 -45.299561 -116.14879
525046875 -45.425079 -121.67589
525156250 -44.085377 -116.70537
525265625 -46.352432 -103.35358
525375000 -48.597725 -79.518929
525484375 -47.19038 -85.916046
525593750 -43.401546 -103.27814
525703125 -45.528519 -128.76819
525812500 -48.963669 -111.07147
525921875 -46.389248 -123.697
526031250 -43.847477 -106.51106
526140625 -47.662086 -120.70569
526250000 -44.830399 -103.46408
526359375 -46.186783 -73.704857
526468750 -44.327534 -114.23702
526578125 -45.494766 -97.852303
526687500 -44.569557 -99.841354
526796875 -45.84462 -100.22116
526906250 -44.38987 -107.97246
527015625 -46.006893 -87.607613
527125000 -47.623188 -109.48033
527234375 -46.234909 -109.69225
527343750 -51.22916 -139.21725
527453125 -49.05225 -123.38071
527562500 -46.888336 -125.53311
527671875 -44.588718 -90.08625
527781250 -47.379253 -108.15662
527890625 -50.28722 -126.69814
528000000 -47.933277 -138.41501
528109375 -48.368782 -116.42123
528218750 -49.945751 -61.481594
528328125 -42.759438 -100.99417
528437500 -77.440018 169.69447
528546875 -42.543049 -119.87083
528656250 -47.547871 -122.43526
528765625 -41.597797 -94.746552
528875000 -45.712429 -95.496498
528984375 -42.264217 -90.434021
529093750 -48.768002 -115.33501
529203125 -45.848415 -103.92492
529312500 -45.008263 -122.92816
529421875 -56.232307 -77.460686
529531250 -43.790913 -99.176979
529640625 -46.237671 -105.85292
529750000 -46.518578 -131.12668
529859375 -43.414963 -75.589691
529968750 -44.449627 -84.921532
530078125 -42.699329 -100.32778
530187500 -43.333324 -82.99588
530296875 -42.232922 -111.83522
530406250 -47.128002 -108.56327
530515625 -46.184124 -103.55082
530625000 -42.357407 -112.01657
530734375 -47.455246 -140.88152
530843750 -45.664379 -121.5948
530953125 -50.526184 -78.402809
531062500 -50.400505 -82.039795
531171875 -43.939316 -67.600899
531281250 -42.668808 -120.53558
531390625 -47.262779 -143.14688
531500000 -45.130722 -86.827599
531609375 -49.173241 -103.75322
531718750 -46.149548 -98.231758
531828125 -45.081985 -91.62851
531937500 -45.771187 -66.991302
532046875 -45.652264 -113.04757
532156250 -50.249565 -118.7711
532265625 -47.959751 -103.26736
532375000 -47.923592 -98.708191
532484375 -42.457684 -107.04891
532593750 -46.906372 -132.10693
532703125 -45.548054 -162.14799
532812500 -43.651188 -119.75993
532921875 -47.811852 -96.534233
533031250 -46.595547 -111.92271
533140625 -42.722042 -82.651543
533250000 -42.032211 -128.92691
533359375 -48.338982 -130.6225
533468750 -47.587975 -95.86042
533578125 -42.296547 -87.951042
533687500 -43.907684 -116.7233
533796875 -46.221531 -104.77542
533906250 -51.883732 -87.472534
534015625 -45.575611 -166.11055
534125000 -45.923519 -115.94579
534234375 -50.514423 -101.95914
534343750 -45.583893 -108.31218
534453125 -43.751743 -114.1087
534562500 -46.365818 -116.10429
534671875 -42.414688 -100.04247
534781250 -46.004837 -102.6261
534890625 -52.302078 -82.392822
535000000 -44.314335 -121.84894
535109375 -48.02943 -157.32791
535218750 -50.360821 -114.80591
535328125 -44.520748 -119.19314
535437500 -43.941216 -89.954468
535546875 -49.749886 -161.40775
535656250 -43.337349 -127.20033
535765625 -42.689842 -115.69144
535875000 -46.394199 -81.955521
535984375 -44.359077 -119.56465
536093750 -48.824684 -101.19095
536203125 -46.347904 -100.23229
536312500 -45.031746 -121.53828
536421875 -43.896896 -97.953339
536531250 -47.328117 -93.926262
536640625 -44.101166 -78.708244
536750000 -42.627254 -120.36028
536859375 -46.924488 -94.197807
536968750 -50.569962 -62.307568
537078125 -47.234409 -123.30874
537187500 -48.204685 -86.543159
537296875 -42.168015 -125.43197
537406250 -47.964447 -89.0392
537515625 -51.277775 -93.356224
537625000 -46.648048 -90.474815
537734375 -46.771713 -109.78168
537843750 -45.897079 -94.859238
537953125 -44.221733 -113.72254
538062500 -46.536877 -139.01918
538171875 -43.83358 -88.733833
538281250 -56.431717 -119.32618
538390625 -47.626431 -95.81366
538500000 -42.419212 -115.92647
538609375 -44.16161 -81.52964
538718750 -47.691757 -38.89632
538828125 -52.902267 -135.88277
538937500 -48.25666 -87.7435
539046875 -48.185505 -105.04434
539156250 -49.426769 -94.814049
539265625 -47.832451 -84.08213
539375000 -46.221912 -88.226601
539484375 -47.572315 -111.9834
539593750 -47.151089 -70.930511
539703125 -46.230911 -113.54063
539812500 -52.562122 -107.62242
539921875 -44.60516 -90.065247
540031250 -47.935249 -129.6889
540140625 -44.283737 -109.17446
540250000 -46.648422 -90.792641
540359375 -44.34174 -133.73251
540468750 -47.232819 -96.67144
540578125 -50.016533 -101.02253
540687500 -47.211948 -82.999557
540796875 -46.671616 -74.432884
540906250 -47.829872 -117.77892
541015625 -58.826599 -89.07531
541125000 -46.781864 -103.81321
541234375 -47.431492 -104.66638
541343750 -42.429817 -89.433624
541453125 -46.332779 -94.299858
541562500 -45.862267 -87.698807
541671875 -44.0224 -134.1451
541781250 -49.323681 -90.493835
541890625 -43.317039 -75.244202
542000000 -52.245712 -71.946075
542109375 -48.520878 -144.07249
542218750 -45.266411 -91.53643
542328125 -49.404987 -156.31126
542437500 -45.582123 -94.887245
542546875 -46.128307 -97.978577
542656250 -47.092415 -112.10264
542765625 -44.625717 -116.82401
542875000 -49.495796 -110.3247
542984375 -44.544289 -125.74988
543093750 -48.23238 -132.23212
543203125 -45.436794 -109.49804
543312500 -46.15377 -103.45698
543421875 -42.177155 -128.94975
543531250 -47.308784 -143.25183
543640625 -47.497673 -100.45205
543750000 -46.922012 -85.385551
543859375 -43.174114 -77.337082
543968750 -44.192886 -108.16415
544078125 -45.34647 -101.81394
544187500 -45.558586 -104.08783
544296875 -47.603794 -111.48445
544406250 -47.924385 -100.42366
544515625 -45.317101 -104.4201
544625000 -47.603889 -83.293396
544734375 -47.374554 -96.283401
544843750 -43.15004 -92.737587
544953125 -44.546944 -131.81322
545062500 -41.720047 -96.496979
545171875 -47.604103 -105.52193
545281250 -47.022652 -71.621742
545390625 -44.269367 -130.55849
545500000 -42.61557 -112.54109
545609375 -49.59486 -104.58954
545718750 -43.392723 -123.54856
545828125 -44.024906 -114.30966
545937500 -45.88092 -111.3212
546046875 -46.124264 -102.70161
546156250 -45.660076 -82.697113
546265625 -43.994701 -85.552017
546375000 -43.614048 -72.966232
546484375 -43.018932 -90.790024
546593750 -52.642494 -126.9524
546703125 -42.642948 -84.503571
546812500 -58.102612 -74.866005
546921875 -44.737656 -103.74953
547031250 -54.010017 -98.836769
547140625 -42.133198 -114.73478
547250000 -44.790115 -127.48715
547359375 -46.03957 -111.1553
547468750 -42.883629 -112.25594
547578125 -44.859344 -112.03175
547687500 -45.518566 -87.865669
547796875 -43.791054 -113.2849
547906250 -46.783886 -149.95226
548015625 -52.385654 -115.1666
548125000 -48.606983 -98.092438
548234375 -43.50243 -110.1716
548343750 -48.548187 -97.361031
548453125 -44.117676 -98.087112
548562500 -45.036484 -64.07489
548671875 -51.977104 -121.61881
548781250 -46.642696 -118.78181
548890625 -45.571266 -93.475861
549000000 -47.121899 -85.296745
549109375 -46.034683 -84.396629
549218750 -43.228878 -103.64967
549328125 -47.49884 -93.87043
549437500 -46.333946 -111.08997
549546875 -44.317005 -124.71571
549656250 -44.173332 -86.520401
549765625 -44.259144 -154.09877
549875000 -47.084442 -92.202614
549984375 -53.076038 174.64883
550093750 -45.48315 -102.78835
550203125 -43.361656 -106.61848
550312500 -46.740307 -103.27138
550421875 -44.697735 -94.579552
550531250 -46.910393 -99.846237
550640625 -46.152718 -111.28041
550750000 -41.635471 -107.40442
550859375 -41.038937 -97.163467
550968750 -50.290913 -90.885376
551078125 -45.188931 -125.1033
551187500 -49.473492 -109.22471
551296875 -50.602016 -72.37175
551406250 -51.980492 -81.016525
551515625 -43.723618 -107.41628
551625000 -53.443008 -100.37326
551734375 -45.572041 -75.513618
551843750 -44.296917 -92.857536
551953125 -48.64761 -116.23183
552062500 -47.720901 -84.217125
552171875 -49.098694 -100.71324
552281250 -43.904617 -111.86348
552390625 -46.598423 -87.938103
552500000 -49.630188 -133.5442
552609375 -53.213245 -75.65303
552718750 -42.867512 -107.90544
552828125 -47.954483 -90.672363
552937500 -47.607941 -123.56724
553046875 -45.603168 -98.438965
553156250 -46.141724 -102.52074
553265625 -42.108932 -101.65012
553375000 -44.786606 -98.655304
553484375 -46.472706 -88.070236
553593750 -45.808708 -97.960793
553703125 -43.909962 -53.541157
553812500 -43.806198 -146.40756
553921875 -44.502678 -85.605385
554031250 -47.200668 -110.86791
554140625 -44.291218 -148.63713
554250000 -47.363358 -96.830666
554359375 -46.676582 -83.292976
554468750 -48.276783 -146.99121
554578125 -45.315266 -84.167442
554687500 -43.905281 -87.558624
554796875 -44.430141 -110.56019
554906250 -46.861301 -90.386566
555015625 -45.961395 -90.377853
555125000 -42.027302 -80.35717
555234375 -44.71875 -107.70856
555343750 -45.9552 -117.11769
555453125 -45.202072 -144.72243
555562500 -49.63203 -78.221924
555671875 -54.675468 -142.18748
555781250 -45.993561 -107.1927
555890625 -44.803768 -92.639122
556000000 -42.468292 -97.017006
556109375 -46.87072 -128.73759
556218750 -48.167847 -108.23847
556328125 -49.519073 -80.271469
556437500 -42.142582 -93.149323
556546875 -45.746738 -151.87494
556656250 -50.064514 -148.14247
556765625 -47.457081 -72.179665
556875000 -46.897072 -109.84484
556984375 -43.583614 -67.713974
557093750 -44.906811 -103.33033
557203125 -46.872101 -72.768333
557312500 -50.927639 -97.430679
557421875 -46.539711 -98.718933
557531250 -53.06881 -160.71165
557640625 -48.632427 -100.93766
557750000 -47.113365 -102.54795
557859375 -47.726036 -109.45083
557968750 -47.884705 -141.60014
558078125 -48.820713 -97.328506
558187500 -47.495701 -91.2127
558296875 -46.516457 -121.35564
558406250 -50.017582 -84.375
558515625 -45.974319 -99.69516
558625000 -44.260311 -121.28815
558734375 -46.687302 -121.59747
558843750 -42.91357 -123.24599
558953125 -44.750305 -139.25262
559062500 -46.497536 -146.91222
559171875 -45.473076 -139.39655
559281250 -44.418407 -126.13566
559390625 -50.145924 -107.03886
559500000 -52.936989 -66.32888
559609375 -45.593342 -135.41153
559718750 -45.452065 -132.39014
559828125 -40.308468 -96.690331
559937500 -49.191055 -101.70689
560046875 -47.009892 -102.99056
560156250 -45.923443 -111.08578
560265625 -48.204376 -102.36651
560375000 -44.309387 -89.397034
560484375 -52.25507 -48.54314
560593750 -49.130661 -130.9411
560703125 -45.399071 -118.82611
560812500 -41.23415 -111.7673
560921875 -48.596886 -77.339859
561031250 -53.703182 -113.27741
561140625 -48.100163 -119.42086
561250000 -42.653809 -129.8293
561359375 -51.31583 -114.04101
561468750 -45.107933 -109.38406
561578125 -43.862324 -124.60578
561687500 -46.579849 -94.244392
561796875 -44.431591 -128.95647
561906250 -45.237503 -92.685532
562015625 -43.573967 -83.035698
562125000 -44.141678 -111.78185
562234375 -47.793827 -41.76635
562343750 -44.914871 -86.084457
562453125 -44.703129 -100.22353
562562500 -48.886421 -151.83142
562671875 -41.873245 -95.541298
562781250 -42.922951 -123.58372
562890625 -44.19183 -94.501915
563000000 -44.824284 -70.043678
563109375 -51.516666 -114.06646
563218750 -50.644016 -104.64437
563328125 -49.047874 -75.508232
563437500 -41.262684 -99.806099
563546875 -49.210621 -112.91331
563656250 -45.364899 -125.34217
563765625 -43.998295 -111.7485
563875000 -47.29438 -97.421005
563984375 -46.691566 -79.851151
564093750 -45.53112 -109.54784
564203125 -46.632858 -162.02518
564312500 -48.434612 -127.76033
564421875 -44.279049 -132.80183
564531250 -47.580845 -121.45788
564640625 -46.984154 -80.708122
564750000 -42.961182 -73.744461
564859375 -53.391376 -57.364418
564968750 -45.809231 -97.930992
565078125 -42.922611 -119.43572
565187500 -43.025417 -103.56635
565296875 -47.15123 -128.50243
565406250 -47.505489 -107.62528
565515625 -55.489868 -131.26596
565625000 -44.901848 -82.88044
565734375 -45.074711 -119.23737
565843750 -47.156277 -124.50967
565953125 -54.840214 -112.60255
566062500 -44.789207 -98.845734
566171875 -50.488724 -89.063667
566281250 -43.698723 -86.925499
566390625 -49.602528 -72.012482
566500000 -48.823902 -101.94009
566609375 -46.911873 -111.54841
566718750 -44.708164 -125.6558
566828125 -45.992302 -87.334198
566937500 -44.215588 -121.5449
567046875 -42.790302 -99.074135
567156250 -43.602108 -113.43993
567265625 -42.925255 -109.05128
567375000 -49.937492 -142.63771
567484375 -48.51543 -135.59846
567593750 -45.265362 -99.751137
567703125 -51.093716 -111.52553
567812500 -42.888165 -126.4752
567921875 -45.293446 -103.83102
568031250 -48.264904 -80.098648
