!Agilent Technologies,E8363C,MY49030273,A.09.42.18
!Agilent E8363C: A.09.42.18
!Date: Tuesday, May 03, 2022 03:54:47
!Correction: S22(Full 2 Port(1,2)) 
!S1P File: Measurement: S22:
# Hz S  dB   R 50
500000000 -0.061435767 166.31631
500109375 -0.020851163 166.40614
500218750 -0.019553013 166.68156
500328125 -0.054055575 166.1506
500437500 -0.020069337 166.31956
500546875 -0.017870102 166.09592
500656250 -0.03974149 166.29431
500765625 -0.037607037 166.18651
500875000 -0.0044366294 166.63689
500984375 -0.059076726 166.38719
501093750 -0.032683771 166.01466
501203125 -0.023672832 166.62756
501312500 -0.059895407 166.33034
501421875 0.0082290098 166.183
501531250 -0.054838996 166.18816
501640625 0.017806331 166.43575
501750000 -0.052395094 166.08485
501859375 -0.062941223 166.36429
501968750 -0.072905526 166.41524
502078125 -0.044900194 166.25592
502187500 -0.037937034 166.2653
502296875 -0.048972268 166.07277
502406250 -0.0015638196 166.26688
502515625 -0.048627853 166.38258
502625000 -0.051932093 166.23035
502734375 -0.011228511 166.2684
502843750 -0.10041042 166.20201
502953125 -0.053394005 166.30264
503062500 -0.058137093 166.16679
503171875 -0.039389659 166.10152
503281250 -0.052418943 166.35007
503390625 -0.030564146 166.46193
503500000 -0.040914249 166.07433
503609375 -0.023359369 166.07352
503718750 -0.038123954 166.11523
503828125 -0.026672173 166.13153
503937500 -0.04683822 166.25687
504046875 -0.043909099 166.01134
504156250 -0.059395749 166.07068
504265625 -0.079719581 166.05777
504375000 -0.041150618 166.33434
504484375 -0.058704883 166.44756
504593750 -0.057834581 166.3484
504703125 0.011672664 166.21684
504812500 -0.018637637 165.91232
504921875 -0.0038168977 166.12895
505031250 -0.045567695 166.32399
505140625 -0.045520812 166.20041
505250000 -0.046284355 166.03812
505359375 0.016568314 166.25322
505468750 -0.015954124 166.20192
505578125 -0.054334961 166.28223
505687500 -0.044342022 166.27338
505796875 -0.033778705 166.17583
505906250 -0.030611768 166.36331
506015625 -0.059828538 166.27554
506125000 -0.063746974 166.14047
506234375 -0.059179649 166.21866
506343750 -0.071815193 166.19853
506453125 -0.019993415 166.11523
506562500 -0.028197333 165.95805
506671875 -0.059753247 166.14651
506781250 -0.049323302 166.06769
506890625 -0.046819404 166.39902
507000000 -0.01504449 166.13028
507109375 -0.032819971 166.18858
507218750 -0.064411268 166.39403
507328125 -0.035994854 165.948
507437500 -0.012798926 166.12781
507546875 -0.052434947 165.88022
507656250 -0.063490145 166.50827
507765625 -0.030196043 166.21867
507875000 -0.079052337 166.2588
507984375 -0.069853745 166.19263
508093750 -0.052113324 165.91579
508203125 -0.065447718 166.073
508312500 -0.071294121 165.99503
508421875 -0.074570522 166.01573
508531250 -0.074049264 166.00569
508640625 -0.017974323 166.03694
508750000 -0.034841821 166.11473
508859375 -0.05854097 165.91841
508968750 -0.082328536 165.88651
509078125 -0.025285652 165.88609
509187500 -0.048570849 166.04178
509296875 -0.071625508 165.95438
509406250 -0.076417185 166.27399
509515625 -0.036768377 166.32124
509625000 -0.071866177 165.75485
509734375 -0.037395395 166.07115
509843750 -0.046534676 165.95172
509953125 -0.08039657 166.20384
510062500 -0.0050905454 166.03897
510171875 -0.0750366 166.07057
510281250 -0.061524455 166.00696
510390625 -0.029800983 166.07555
510500000 -0.046467099 165.83826
510609375 -0.052432898 166.05635
510718750 -0.025398552 166.26274
510828125 -0.041643597 165.80449
510937500 -0.044656169 166.02345
511046875 -0.054081213 166.06374
511156250 -0.050107814 165.93744
511265625 -0.024950361 165.9153
511375000 -0.088120706 166.00967
511484375 0.0023492214 166.07422
511593750 -0.057787232 166.19226
511703125 -0.042724203 165.87175
511812500 -0.073386855 166.22343
511921875 -0.021246266 165.93958
512031250 -0.053022914 166.45209
512140625 -0.070377573 166.26407
512250000 -0.045678381 166.03549
512359375 -0.036075789 166.35454
512468750 -0.078627691 166.06519
512578125 -0.088209979 166.13768
512687500 -0.062993459 165.89014
512796875 -0.074783951 166.01575
512906250 -0.049509827 166.13351
513015625 -0.02137435 165.96085
513125000 -0.073847674 166.07921
513234375 -0.04367578 166.01881
513343750 -0.053374659 165.64851
513453125 -0.057876606 165.87624
513562500 -0.046123471 165.83066
513671875 -0.078115933 165.97559
513781250 -0.06670586 166.03368
513890625 -0.042119648 165.66705
514000000 -0.10304396 165.89789
514109375 -0.076918662 166.08139
514218750 -0.012810972 165.92174
514328125 0.0071499208 165.86568
514437500 -0.042991888 166.13933
514546875 -0.034895297 166.1032
514656250 -0.051657151 165.8864
514765625 -0.019859098 166.12003
514875000 -0.1032149 166.28876
514984375 -0.031638723 165.49699
515093750 -0.01308115 165.97127
515203125 -0.078006402 165.84798
515312500 -0.071271069 165.64449
515421875 -0.050313346 166.05635
515531250 -0.0077914484 166.20474
515640625 -0.022419037 165.69867
515750000 0.0046451418 165.93394
515859375 -0.073680781 165.6478
515968750 -0.060513683 165.85999
516078125 -0.085145153 166.06279
516187500 -0.073605731 165.72211
516296875 -0.082554504 165.92407
516406250 -0.039582662 165.83998
516515625 -0.048904229 165.89723
516625000 -0.005749736 166.31277
516734375 -0.007875964 165.90726
516843750 -0.038859721 165.57237
516953125 -0.018156072 166.151
517062500 -0.051472034 165.83846
517171875 -0.056786645 165.84033
517281250 -0.015720112 165.83438
517390625 -0.054676019 165.76874
517500000 -0.035280459 165.93102
517609375 -0.049476828 165.79935
517718750 -0.067808844 165.83937
517828125 -0.052153867 165.82785
517937500 -0.026776372 165.84561
518046875 -0.036356136 165.72954
518156250 -0.080006897 165.73068
518265625 -0.051135253 165.93399
518375000 -0.045823283 165.33446
518484375 -0.02772061 166.05331
518593750 -0.033212095 165.89825
518703125 -0.025249014 165.88136
518812500 -0.038435567 165.87996
518921875 -0.068914399 165.71335
519031250 -0.013303283 165.84698
519140625 -0.03991523 165.84721
519250000 -0.017581346 165.72939
519359375 -0.067132376 165.76823
519468750 -0.069377236 165.97807
519578125 -0.0006048287 165.45335
519687500 -0.031108547 165.71378
519796875 -0.021451296 165.56189
519906250 -0.021861028 165.59703
520015625 -0.043719754 165.87004
520125000 -0.06837824 165.82552
520234375 0.002376816 165.66843
520343750 -0.067614101 165.75075
520453125 -0.032009084 166.01669
520562500 -0.055809315 165.68674
520671875 -0.072530285 165.92334
520781250 -0.026442297 165.46863
520890625 -0.054123849 165.52063
521000000 -0.032585111 165.62036
521109375 -0.037429594 165.51239
521218750 -0.04861065 165.69687
521328125 -0.055513963 165.65495
521437500 -0.044543508 165.69707
521546875 -0.020813545 165.94687
521656250 -0.033030547 165.57147
521765625 -0.040316392 165.90233
521875000 -0.049863182 165.46701
521984375 -0.062292475 165.49551
522093750 -0.047101088 165.80499
522203125 -0.08568956 165.87834
522312500 -0.065708689 165.61424
522421875 -0.056366961 165.51028
522531250 -0.043534797 165.67506
522640625 -0.051587604 165.51871
522750000 -0.037202235 165.74263
522859375 -0.01696657 165.71634
522968750 -0.021581054 165.62021
523078125 -0.02348304 165.72612
523187500 -0.037443798 165.57935
523296875 -0.052996069 165.59442
523406250 -0.010317572 165.5096
523515625 -0.043396249 165.54068
523625000 -0.034261551 165.59328
523734375 -0.023932602 165.3378
523843750 -0.02499768 165.63002
523953125 -0.028042192 165.62189
524062500 -0.0058604861 165.73291
524171875 -0.062379681 165.71857
524281250 -0.03876568 165.69528
524390625 -0.022418518 165.48848
524500000 0.007327409 165.58098
524609375 -0.022834297 165.95988
524718750 -0.094197899 165.68018
524828125 -0.019514028 165.45155
524937500 -0.018309243 165.53967
525046875 -0.013605165 165.73447
525156250 -0.029942226 165.62794
525265625 -0.014622808 165.67493
525375000 -0.04826184 165.73448
525484375 -0.073943079 165.48056
525593750 -0.025218436 165.65398
525703125 -0.052157313 165.55424
525812500 -0.056431729 165.57185
525921875 -0.043714777 165.43407
526031250 -0.044450801 165.75093
526140625 -0.066365197 165.71889
526250000 -0.018953126 165.20052
526359375 -0.058779985 165.54643
526468750 -0.044617791 165.65154
526578125 -0.047709621 165.71896
526687500 -0.051517706 165.46423
526796875 -0.078581832 165.66542
526906250 -0.054431386 165.64598
527015625 -0.048780426 165.59288
527125000 -0.070051901 165.67477
527234375 0.0047984202 165.55998
527343750 -0.078453347 165.65129
527453125 -0.073337093 165.49707
527562500 -0.061614487 165.49266
527671875 -0.067922413 165.72983
527781250 -0.069540821 165.89409
527890625 -0.056713484 165.67752
528000000 0.007171521 165.33177
528109375 -0.029298224 165.78386
528218750 -0.092337683 165.54892
528328125 -0.055122804 165.58459
528437500 -0.06804233 165.77684
528546875 -0.053885017 165.36659
528656250 -0.033275276 165.57822
528765625 -0.073446706 165.42679
528875000 0.018423446 165.59795
528984375 -0.038262542 165.78036
529093750 -0.080724753 165.96822
529203125 -0.022727946 165.54869
529312500 -0.096032605 165.7733
529421875 -0.010905853 165.33949
529531250 -0.065265357 165.9426
529640625 -0.060232654 165.67003
529750000 -0.08813408 165.65733
529859375 -0.056901235 165.57994
529968750 0.0061482275 165.64008
530078125 -0.076208331 165.75024
530187500 -0.047996204 165.54904
530296875 -0.090108685 165.74312
530406250 -0.054659318 165.46552
530515625 -0.068412766 165.52882
530625000 -0.049884528 165.54865
530734375 -0.080234692 165.37949
530843750 -0.049718779 165.56248
530953125 -0.082393371 165.49356
531062500 -0.024497654 165.4798
531171875 -0.050292395 165.6228
531281250 -0.023824148 165.72258
531390625 -0.055336218 165.39261
531500000 -0.057470322 165.6965
531609375 -0.028578117 165.39516
531718750 -0.055835988 165.38887
531828125 -0.058263674 165.00529
531937500 -0.038722504 165.47014
532046875 -0.040985789 165.35057
532156250 -0.030725321 165.43709
532265625 -0.019611476 165.38722
532375000 -0.049293522 165.4938
532484375 -0.063662983 165.68408
532593750 -0.058882408 165.42183
532703125 -0.08277709 165.57253
532812500 -0.02445071 165.6698
532921875 -0.035877269 165.57465
533031250 -0.08888232 165.4297
533140625 -0.061224297 165.18283
533250000 -0.040641267 165.42331
533359375 -0.10342298 165.28882
533468750 -0.054358497 165.40211
533578125 -0.023094036 165.15468
533687500 -0.019531792 165.43941
533796875 -0.0429096 165.3427
533906250 -0.07594014 165.31659
534015625 -0.069245376 165.54323
534125000 -0.081895493 165.38467
534234375 -0.021741562 165.21834
534343750 -0.050223932 165.52606
534453125 -0.058422063 165.81087
534562500 -0.06947273 165.59433
534671875 -0.027849555 165.08112
534781250 -0.062822692 165.4593
534890625 -0.051643208 165.5031
535000000 -0.079002209 165.66132
535109375 -0.065022387 165.33893
535218750 -0.054097865 165.44536
535328125 -0.083310656 165.41743
535437500 -0.015773511 165.39461
535546875 -0.03679207 165.35883
535656250 -0.048721511 165.20032
535765625 -0.046955373 165.14618
535875000 -0.025296025 165.24202
535984375 -0.029541755 165.18704
536093750 -0.0090352353 165.13638
536203125 -0.069586471 165.4635
536312500 -0.023949832 165.30403
536421875 -0.046156555 165.42201
536531250 -0.057652704 165.02849
536640625 0.012756641 165.67293
536750000 -0.051642157 165.25656
536859375 -0.050076064 165.36084
536968750 -0.0090768384 165.24625
537078125 -0.023914348 165.26141
537187500 -0.01670404 165.49971
537296875 -0.0018567384 165.09973
537406250 -0.064969636 165.1454
537515625 -0.014622645 165.05759
537625000 -0.039077584 165.00023
537734375 -0.059033591 165.17673
537843750 -0.074414052 165.07016
537953125 -0.057426095 165.24913
538062500 -0.02739666 165.3129
538171875 -0.043805968 165.27216
538281250 -0.054969069 165.20953
538390625 -0.044527706 165.2182
538500000 -0.0025475321 165.09734
538609375 -0.060133196 165.15208
538718750 -0.016358316 165.24312
538828125 -0.043815646 165.35451
538937500 -0.072515637 165.16699
539046875 0.00681043 165.29684
539156250 -0.064756021 165.41064
539265625 -0.020856522 165.20645
539375000 -0.072475933 165.44418
539484375 -0.061807021 165.09752
539593750 -0.055285562 165.21288
539703125 -0.037920523 165.2067
539812500 -0.058164667 165.25354
539921875 -0.050562151 165.22034
540031250 -0.015897168 165.19626
540140625 -0.050386507 165.38104
540250000 -0.044482656 165.33406
540359375 -0.01258506 165.29904
540468750 -0.030012989 165.38303
540578125 -0.048155695 165.44652
540687500 0.0030945102 165.07507
540796875 -0.070490956 165.47816
540906250 0.0053017028 165.41946
541015625 -0.06542296 165.2476
541125000 -0.10212632 165.17125
541234375 -0.021067565 165.13528
541343750 -0.039907921 165.1436
541453125 -0.037493482 165.2867
541562500 -0.037696689 164.96184
541671875 -0.054877419 165.16454
541781250 -0.022361211 165.19446
541890625 -0.048614629 165.02538
542000000 -0.05254446 165.1207
542109375 -0.053126834 165.06715
542218750 -0.022808868 165.09592
542328125 -0.044152472 165.15761
542437500 -0.0050558262 164.99814
542546875 -0.063696705 165.08955
542656250 -0.043685518 165.34161
542765625 -0.066388361 164.96887
542875000 -0.077759922 164.9774
542984375 -0.075464912 165.16116
543093750 -0.046624932 165.32359
543203125 -0.070853554 165.1881
543312500 -0.059481382 165.40915
543421875 -0.11018015 165.38486
543531250 -0.03714522 165.19112
543640625 -0.093136869 165.12437
543750000 -0.0063110073 165.12358
543859375 -0.083270304 165.41995
543968750 -0.066646792 165.14653
544078125 -0.048083689 165.15488
544187500 -0.083329 165.23935
544296875 -0.066834129 165.0415
544406250 -0.051008884 164.91521
544515625 -0.049249507 165.20529
544625000 -0.037480552 165.41614
544734375 -0.070165403 165.1945
544843750 -0.047105819 165.092
544953125 -0.049987357 165.03583
545062500 -0.088609487 164.98801
545171875 -0.074289851 164.94897
545281250 -0.041290149 165.2912
545390625 -0.028585687 165.15051
545500000 -0.076841094 165.4912
545609375 -0.064969294 165.02875
545718750 -0.021749035 165.13197
545828125 -0.099045195 165.129
545937500 -0.044355392 164.87924
546046875 -0.0013050558 164.85191
546156250 -0.090177469 164.98215
546265625 -0.086497299 164.99039
546375000 -0.079637967 165.03822
546484375 -0.090420723 165.02893
546593750 -0.04448751 165.25446
546703125 -0.04166045 164.95677
546812500 -0.099832647 165.048
546921875 -0.094376586 164.92178
547031250 -0.068939827 165.07503
547140625 -0.056733511 164.91357
547250000 -0.06960465 165.08075
547359375 -0.060296107 165.05389
547468750 -0.018332656 165.03362
547578125 -0.065018632 165.02098
547687500 -0.079615965 164.92171
547796875 -0.060065947 164.94997
547906250 -0.049526762 164.92935
548015625 -0.072491199 164.8054
548125000 -0.04025409 165.14636
548234375 -0.061071783 165.27635
548343750 -0.072027691 164.99655
548453125 -0.063329846 164.64714
548562500 -0.055755459 165.04814
548671875 -0.05851566 165.17238
548781250 -0.050650649 164.57463
548890625 -0.029189697 164.95854
549000000 -0.066739731 164.95009
549109375 -0.056258906 165.07109
549218750 -0.0198326 165.12439
549328125 -0.020892141 165.00313
549437500 -0.070143089 164.95084
549546875 -0.057073262 164.96474
549656250 -0.048227116 164.98901
549765625 -0.050684251 164.78943
549875000 -0.060245629 164.91513
549984375 -0.05220402 164.95676
550093750 -0.039894432 165.00108
550203125 -0.081724837 165.09367
550312500 -0.007226713 165.05957
550421875 -0.069882363 165.03331
550531250 -0.065613247 164.98769
550640625 -0.036767062 164.7923
550750000 -0.086350039 165.17287
550859375 -0.10381702 165.06378
550968750 -0.04703974 164.91519
551078125 -0.026892351 165.11337
551187500 -0.070416756 165.00102
551296875 -0.087492608 164.63327
551406250 -0.058184471 165.43616
551515625 -0.062391102 164.58485
551625000 -0.059117667 164.90521
551734375 -0.055578377 165.14252
551843750 -0.089484222 165.02206
551953125 -0.053544756 164.94635
552062500 -0.025469081 164.82213
552171875 -0.0272239 165.05792
552281250 -0.087991051 164.87303
552390625 -0.046681363 164.83795
552500000 -0.072634414 164.95987
552609375 -0.0698715 164.95633
552718750 -0.048087422 165.03737
552828125 -0.046540543 164.74242
552937500 -0.021253694 164.90793
553046875 -0.075931497 164.86049
553156250 -0.069874123 164.71298
553265625 -0.030895974 165.00099
553375000 -0.034345347 165.047
553484375 -0.078613155 164.66885
553593750 -0.066615611 164.79478
553703125 -0.039930128 164.7726
553812500 -0.050022602 164.81593
553921875 -0.069849432 164.68979
554031250 -0.0426264 164.82788
554140625 -0.02579963 164.97559
554250000 -0.042053156 164.97221
554359375 -0.06537386 164.71262
554468750 -0.058471244 164.80124
554578125 -0.056167413 164.96886
554687500 -0.037158258 165.27573
554796875 -0.022704177 164.77663
554906250 -0.07070604 164.76067
555015625 -0.05389427 164.73801
555125000 -0.078381598 164.90739
555234375 -0.04128303 164.81615
555343750 -0.09390451 164.9283
555453125 -0.075592726 164.86346
555562500 -0.070299521 164.90036
555671875 -0.060334951 164.96378
555781250 -0.035394244 164.82965
555890625 -0.023697883 164.93431
556000000 -0.047763228 164.87489
556109375 -0.024123082 164.71718
556218750 -0.036781717 164.56404
556328125 -0.060241822 164.89597
556437500 -0.041667942 164.96146
556546875 -0.00068568159 164.80307
556656250 -0.062363192 164.81808
556765625 -0.0071676797 164.73586
556875000 -0.014830169 164.65829
556984375 -0.020017382 165.11938
557093750 -0.026936138 164.79623
557203125 -0.063572712 164.87747
557312500 -0.014405421 164.63139
557421875 -0.023894332 164.81308
557531250 -0.0020714654 164.96863
557640625 -0.043102175 165.11037
557750000 -0.015066453 164.83702
557859375 0.011148517 164.51842
557968750 -0.046565723 165.1015
558078125 -0.084013954 164.80722
558187500 -0.02119437 164.70024
558296875 0.0055704196 164.61653
558406250 -0.071426012 164.79082
558515625 -0.040490746 164.82704
558625000 -0.077172741 164.92868
558734375 -0.050894674 164.61758
558843750 -0.028344944 164.72072
558953125 -0.050068974 164.59219
559062500 -0.063881882 164.91316
559171875 -0.046855513 164.7744
559281250 -0.10790025 164.49556
559390625 -0.031367704 164.92023
559500000 0.0087011335 164.60727
559609375 -0.034206301 164.73654
559718750 -0.038551688 164.535
559828125 -0.098979548 164.95818
559937500 -0.024326624 164.48888
560046875 -0.0072356868 164.45636
560156250 -0.04070973 164.49315
560265625 -0.044683676 164.78511
560375000 -0.012686555 164.90009
560484375 -0.036534205 164.31073
560593750 -0.059969459 164.67676
560703125 -0.042355269 164.39078
560812500 -0.049442928 164.71431
560921875 -0.036557943 164.45642
561031250 -0.018614523 164.50658
561140625 -0.036178082 164.36795
561250000 -0.072793499 164.54253
561359375 -0.062247984 164.71545
561468750 -0.0043913829 164.69702
561578125 -0.024359453 164.75357
561687500 -0.043587446 164.69688
561796875 -0.0021653206 164.42061
561906250 -0.048207086 164.49692
562015625 -0.065486908 164.43364
562125000 -0.045178991 164.65968
562234375 -0.031312335 164.4702
562343750 -0.040286176 164.55847
562453125 -0.060401343 164.60606
562562500 -0.053271744 164.72998
562671875 -0.068458743 164.73296
562781250 -0.055474438 164.57698
562890625 -0.091717146 164.44432
563000000 -0.0078634517 164.47885
563109375 -0.036790088 164.81874
563218750 -0.048439588 164.48482
563328125 -0.058612335 164.61142
563437500 -0.02208209 164.50276
563546875 -0.03623528 164.41411
563656250 -0.030443205 164.56956
563765625 -0.02849742 164.61578
563875000 -0.065262377 164.89659
563984375 -0.047948997 164.65341
564093750 0.0065835118 164.5894
564203125 -0.043785058 164.59668
564312500 -0.012773897 164.62148
564421875 -0.036971495 164.55678
564531250 -0.025224151 164.55193
564640625 -0.031384587 164.41083
564750000 -0.079024822 164.50183
564859375 -0.024991414 164.25526
564968750 -0.047503922 164.66537
565078125 -0.058424 164.60193
565187500 -0.048813522 164.50244
565296875 -0.037269704 164.60306
565406250 -0.046008877 164.42313
565515625 -0.034409422 164.54114
565625000 -0.028919404 164.55417
565734375 -0.043532323 164.48061
565843750 -0.045091961 164.57246
