!Agilent Technologies,E8363C,MY49030273,A.09.42.18
!Agilent E8363C: A.09.42.18
!Date: Tuesday, May 03, 2022 03:58:37
!Correction: S11(Full 2 Port(1,2)) 
!S21(Full 2 Port(1,2)) 
!S12(Full 2 Port(1,2)) 
!S22(Full 2 Port(1,2)) 
!S2P File: Measurements: S11, S21, S12, S22:
# Hz S  dB   R 50
500000000 -39.642586 41.689671 -0.045951396 -2.6892276 -0.02390085 -2.5966232 -36.84779 64.088882
500109375 -38.30518 67.624207 -0.063971981 -2.5839255 -0.030544767 -2.8008096 -38.433247 64.679451
500218750 -39.31226 56.467678 -0.030940494 -2.5732453 -0.031425595 -2.5904639 -38.889408 78.972771
500328125 -39.532284 57.254356 -0.0021198038 -2.7374294 -0.074169248 -2.2752821 -37.532715 71.6175
500437500 -40.039017 60.938587 -0.035772707 -2.6536028 -0.018664123 -2.6457813 -38.57172 63.717529
500546875 -38.203503 54.013695 -0.015177322 -2.7429125 -0.012278965 -2.6083374 -38.327362 57.381458
500656250 -37.794586 64.775932 -0.043575592 -2.7757218 -0.027059197 -2.6309988 -38.414776 70.282036
500765625 -38.424866 56.091511 -0.068701319 -2.5002453 -0.036141805 -2.7758074 -40.13092 78.907646
500875000 -38.454689 52.861042 -0.02958126 -2.6673636 -0.042084031 -2.7015641 -37.844116 42.48122
500984375 -38.928925 71.549667 -0.0044591194 -2.5305367 -0.059440069 -2.5373466 -38.786072 76.591309
501093750 -40.085911 64.597305 -0.04680131 -2.5639448 -0.036911223 -2.6115212 -37.325367 47.894825
501203125 -41.282185 47.246155 -0.043748327 -2.7841728 -0.025621489 -2.4616704 -39.832466 63.236694
501312500 -41.223206 51.339653 -0.059237644 -2.4922037 -0.029219344 -2.6137321 -38.695099 50.585655
501421875 -41.17477 66.42128 -0.0057388023 -2.6397231 -0.02130039 -2.4906893 -40.212776 67.273163
501531250 -41.536682 54.342087 -0.0090451585 -2.7405193 -0.027992513 -2.3887665 -38.560513 68.91832
501640625 -38.240643 64.922714 -0.050543599 -2.5489409 -0.0087039527 -2.5587256 -38.35091 66.537033
501750000 -38.529934 62.681808 -0.039303869 -2.7067976 -0.061051372 -2.5031857 -39.4884 54.412491
501859375 -39.816158 62.28688 -0.073095329 -2.481287 -0.034708958 -2.5438886 -40.358536 67.296494
501968750 -40.972851 52.934872 -0.0092410557 -2.7120888 -0.00053439219 -2.7539229 -38.029541 66.795395
502078125 -40.409775 56.42588 -0.00028012448 -2.4283721 -0.061448611 -2.7317472 -38.27832 75.56678
502187500 -41.214344 66.101967 -0.065941811 -2.7428703 -0.039185327 -2.5168369 -38.786964 70.609291
502296875 -39.160126 70.527924 -0.018647317 -2.6014712 0.018899484 -2.3350365 -37.83625 64.251198
502406250 -38.67038 66.228531 -0.028668087 -2.3942251 -0.033187218 -2.4593749 -38.586601 75.012634
502515625 -40.041767 61.728165 -0.032096703 -2.5895362 0.014730855 -2.6884737 -37.80183 64.255531
502625000 -36.735462 61.062061 -0.019037496 -2.703804 -0.051048391 -2.5137544 -38.456642 70.746803
502734375 -39.988331 66.885025 -0.066033259 -2.6053042 -0.0061422987 -2.6242421 -38.625069 60.69936
502843750 -38.042072 70.171425 -0.028781621 -2.570761 -0.02861847 -2.5118601 -39.380394 66.747795
502953125 -38.105484 71.961792 -0.018105559 -2.3428352 -0.0034643188 -2.6836653 -39.012306 65.053055
503062500 -36.975979 71.833855 0.0048460644 -2.6261587 -0.01748666 -2.786957 -41.424351 79.846992
503171875 -39.439045 56.585564 -0.011939559 -2.7636287 -0.020383621 -2.4010823 -39.919319 82.050819
503281250 -39.749599 69.644089 -0.014560495 -2.5515285 -0.023071144 -2.5036294 -38.363663 76.742813
503390625 -39.999443 64.198204 -0.011673989 -3.047298 -0.031167569 -2.6269171 -38.313473 79.590706
503500000 -37.963676 65.489845 -0.0042029019 -2.6976097 -0.019244635 -2.5935378 -39.549412 73.035843
503609375 -41.27903 60.152023 -0.023980705 -2.4748149 -0.014279822 -2.6387641 -37.248573 69.010254
503718750 -39.246952 64.962372 -0.00098907552 -2.5787301 -0.014961316 -2.66113 -39.162636 68.400352
503828125 -38.360691 51.003899 0.0074622664 -2.790415 0.0026043118 -2.3824255 -39.285301 51.985073
503937500 -38.842651 67.290863 -0.026799476 -2.5529451 -0.047609374 -2.849165 -39.345757 63.107883
504046875 -37.96563 71.92778 -0.033845261 -2.5284753 -0.031457648 -2.8817174 -40.930359 62.283306
504156250 -40.578117 62.870422 -0.01313593 -2.7300255 -0.066487364 -2.5558093 -39.13747 70.937263
504265625 -38.709957 65.324936 -0.030599207 -2.7337523 -0.022090171 -2.3922932 -39.742481 75.684204
504375000 -39.863987 48.064163 -0.019288288 -2.5176167 -0.065234281 -2.5114982 -39.02504 56.589443
504484375 -39.310013 38.443401 -0.0118457 -2.4975388 -0.029843489 -2.5900879 -39.420216 55.202904
504593750 -38.767483 66.969009 -0.069647335 -2.7345405 -0.039001588 -2.7853882 -37.900204 57.163116
504703125 -39.807037 75.154762 -0.060308482 -2.5191643 -0.059900742 -2.8732946 -38.436333 63.180691
504812500 -37.618645 70.09967 -0.065956086 -2.6419737 -0.014119672 -2.5145495 -38.248432 70.544022
504921875 -39.451546 73.209045 -0.039589953 -2.7399781 -0.038351145 -2.2464645 -39.183216 58.000027
505031250 -38.11599 66.431053 0.0062211296 -2.6978667 -0.019873947 -2.5550849 -40.394604 81.296982
505140625 -38.911537 61.603527 -0.036744766 -2.3664553 0.020925563 -2.4444566 -39.259552 70.431976
505250000 -38.826439 54.211205 -0.010042772 -2.5926859 -0.04258072 -2.7932343 -38.824692 57.361801
505359375 -37.959679 62.534363 -0.0022731966 -2.4962986 -0.041672219 -2.632369 -36.83511 63.446209
505468750 -38.603344 65.669838 0.0038985279 -2.7741797 -0.057979692 -2.7273374 -38.901173 63.999134
505578125 -40.638393 57.408493 -0.030451041 -2.9355414 -0.036085881 -2.5716169 -37.424629 71.793205
505687500 -38.802204 64.303001 -0.0041812067 -2.4482548 -0.023813101 -2.5804615 -39.056843 73.248207
505796875 -38.690285 57.804016 -0.016695315 -2.6113167 -0.025449671 -2.867588 -38.078957 62.25145
505906250 -40.65823 63.525227 -0.024206311 -2.5704288 -0.014902699 -2.6639953 -39.185921 63.798634
506015625 -39.378777 70.547424 -0.027147053 -2.6052761 -0.041359439 -2.694371 -37.179749 63.204262
506125000 -40.982082 80.51355 -0.018047728 -2.48545 -0.0039442494 -2.7460179 -38.274723 69.334282
506234375 -39.167221 74.838486 -0.0039732386 -2.7769446 -0.0082712052 -2.5239737 -38.229252 71.876915
506343750 -38.055218 61.596451 -0.031018279 -2.8243976 -0.056605343 -2.6744642 -37.844109 80.233841
506453125 -39.648994 65.463036 -0.061559107 -2.3702004 -0.022089303 -2.6732769 -39.525921 79.575157
506562500 -39.893818 71.94648 -0.031267338 -2.5850186 -0.030271437 -2.6214528 -37.754803 40.846451
506671875 -39.028454 60.065605 -0.02214689 -2.7298763 -0.039098728 -2.8322523 -37.722034 63.082447
506781250 -39.910118 67.739952 -0.015094597 -2.4840207 0.0014467398 -2.6049504 -37.160519 65.16703
506890625 -40.111855 62.681492 -0.051206104 -2.5346937 0.0056249085 -2.8395877 -38.362373 62.611267
507000000 -38.462074 62.65506 -0.030801436 -2.7318981 -0.051146328 -2.5056834 -42.219025 75.508476
507109375 -38.171665 57.676674 -0.012148065 -2.5627928 0.0093560871 -2.5006311 -39.080688 80.878601
507218750 -37.53632 69.876053 -0.047410801 -2.7984924 0.023046935 -2.7351353 -41.16087 67.063522
507328125 -38.921951 66.389839 -0.014239577 -2.7451391 -0.097627163 -2.5314331 -39.292809 65.575104
507437500 -39.005981 66.664375 -0.03957526 -2.4342291 -0.036124799 -2.7522449 -37.526157 67.506729
507546875 -38.379219 47.301994 -0.024325436 -2.5251889 -0.016195396 -2.6818421 -37.289967 66.138733
507656250 -37.896439 63.925674 -0.012950021 -2.7715836 -0.03004 -2.2633626 -40.09256 71.64798
507765625 -40.040333 68.454994 0.0071118232 -2.5093842 -0.044658005 -2.4268415 -37.929253 81.559044
507875000 -39.994759 57.185814 -0.015039167 -2.6407931 -0.037252929 -2.5313652 -39.755287 67.656822
507984375 -38.331406 69.921669 -0.029181985 -2.6747739 -0.017377287 -2.6139202 -36.562302 72.303978
508093750 -40.459126 58.708775 -0.042564798 -2.5466938 -0.036064629 -2.7785168 -40.816269 55.515961
508203125 -38.752037 45.432156 -0.035159528 -2.7523658 -0.0094141914 -2.7092197 -38.845348 51.492771
508312500 -40.076546 65.931656 -0.052202281 -2.7085896 0.0079739327 -2.517946 -39.271835 68.0867
508421875 -38.586834 65.846207 -0.026654599 -2.5788615 -0.070566438 -2.3975573 -40.777351 75.534454
508531250 -40.234783 59.102474 -0.046472412 -2.6763961 -0.014613956 -2.6777356 -38.81377 73.875793
508640625 -38.612865 62.654774 -0.030853525 -2.5980284 -0.046128739 -2.4596643 -38.967747 66.38131
508750000 -38.884544 60.475368 -0.043595977 -2.5564113 -0.0048827748 -2.5518019 -40.656471 59.140724
508859375 -38.45475 53.33868 -0.015629454 -2.8000293 0.014780386 -2.5833333 -39.78738 64.01873
508968750 -39.188202 57.140636 0.0044608763 -2.7967579 -0.05260032 -2.6608102 -38.468376 62.481636
509078125 -37.030212 55.202259 -0.041830108 -2.5769291 -0.030377517 -2.6384094 -40.570862 59.790527
509187500 -40.610172 66.513977 -0.0044202209 -2.6783686 -0.0067293816 -2.6926274 -38.004467 61.578644
509296875 -40.973488 63.578831 -0.04339689 -2.7854178 -0.053863179 -2.5267301 -37.511719 67.307976
509406250 -38.993008 55.118736 -0.0057186503 -2.8233573 -0.016541352 -2.4841967 -38.111435 70.601074
509515625 -37.797096 62.052097 -0.043363824 -2.5558517 -0.016281582 -2.5206625 -39.007732 57.959743
509625000 -39.792007 57.610378 -0.017683253 -2.7344871 -0.034801479 -2.8368981 -39.554619 61.116405
509734375 -40.574554 76.562416 -0.027446974 -2.5136838 -0.037192699 -2.639538 -37.902351 73.749092
509843750 -39.593304 66.06118 -0.065393768 -2.7013843 -0.013257981 -2.5951302 -35.776924 66.021645
509953125 -39.7883 54.625099 -0.022194279 -2.5674551 -0.041848756 -2.4594769 -41.102085 80.364433
510062500 -37.889732 93.082397 -0.023833996 -2.4546154 -0.020848626 -2.7260365 -38.937988 61.421715
510171875 -39.533833 66.374825 -0.000877999 -2.5116093 -0.037649006 -2.4948342 -37.7589 69.384399
510281250 -39.598442 42.651405 -0.053831823 -2.4428821 -0.024582356 -2.7418396 -39.254055 53.983776
510390625 -39.012726 69.777687 -0.026309812 -2.5080221 -0.032403067 -2.4908497 -39.64175 52.412804
510500000 -38.518436 72.095604 -0.094447389 -2.7536409 -0.036895189 -2.8592267 -40.038479 74.067566
510609375 -39.703053 51.484692 -0.0022192595 -2.5256205 -0.020669727 -2.643033 -39.489887 63.598618
510718750 -38.65168 73.380577 -0.046531256 -2.7092149 -0.012882452 -2.6894631 -36.771023 51.839146
510828125 -39.027691 58.324333 -0.037341047 -2.8232145 -0.0080537247 -2.5252364 -38.366299 81.890266
510937500 -39.472336 55.454807 -0.0035839919 -2.7743793 -0.057306714 -2.5589247 -37.478035 57.700832
511046875 -37.90543 61.193542 -0.052852768 -2.6691504 0.0017283079 -2.7449377 -37.829475 84.014366
511156250 -37.586697 55.419094 0.012920654 -2.4300287 -0.046734888 -2.7147455 -37.971432 59.02813
511265625 -37.054405 65.77523 -0.023129437 -2.6909368 -0.025100769 -2.5778213 -38.924839 56.379868
511375000 -39.126129 68.077629 -0.024191955 -2.6569145 0.0073437211 -2.4936597 -36.907284 65.180977
511484375 -38.953846 61.127434 -0.046082366 -2.7536287 -0.03736775 -2.6501431 -41.145992 97.835358
511593750 -38.124866 57.961224 0.0019918648 -2.529258 -0.016405983 -2.6491346 -37.787598 67.564659
511703125 -38.171192 67.442017 -0.062721141 -2.4981179 -0.043481894 -2.6201811 -40.435215 48.472275
511812500 -40.368309 65.736519 0.019243373 -2.5218639 -0.031617641 -2.7647731 -37.357807 68.842278
511921875 -38.565479 64.882484 -0.036007483 -2.7235575 -0.044276845 -2.7375314 -39.841389 61.265446
512031250 -40.880974 62.247765 -0.035276826 -2.6885448 -0.010722619 -2.6877553 -37.961758 75.511292
512140625 -38.724377 66.558449 -0.018792244 -2.5982239 -0.036490221 -2.8533046 -39.126877 72.092384
512250000 -37.418179 68.099716 -0.059529904 -2.7753508 -0.039185949 -2.7773936 -37.72641 72.604729
512359375 -40.172611 63.202721 -0.0056102034 -2.6665194 -0.046597417 -2.7193677 -37.681725 64.789047
512468750 -39.225891 62.086296 -0.040611178 -2.7509935 -0.039584719 -2.7480078 -39.586575 77.840157
512578125 -40.399578 70.974426 -0.019303257 -2.5552185 -0.019762119 -2.534215 -40.720253 75.699913
512687500 -39.356087 59.425705 -0.016400421 -2.6887188 -0.03951389 -2.8120935 -38.745991 67.151093
512796875 -38.848125 65.441277 0.0074044042 -2.7196579 -0.041410625 -2.8743384 -38.711285 61.666752
512906250 -38.408119 64.074524 -0.014437588 -2.7124176 -0.032145735 -2.6651905 -37.542755 70.943054
513015625 -39.120483 65.598053 -0.022311848 -2.7335076 -0.033477761 -2.6901119 -36.510994 59.443008
513125000 -39.072086 65.155197 -0.016007202 -2.483789 -0.024844941 -2.8235202 -37.434685 66.47538
513234375 -39.046749 61.599045 -0.029871698 -2.5802684 -0.031220444 -2.5519912 -38.457558 67.777435
513343750 -37.383804 68.444115 -0.023178009 -2.5761344 -0.028442314 -2.7578757 -37.660301 79.098656
513453125 -40.151863 60.649204 -0.056251697 -2.6524899 -0.014845733 -2.5242977 -36.983944 76.508636
513562500 -37.322205 61.054787 -0.070411302 -2.7354693 -0.073890455 -2.5371077 -37.319702 62.348167
513671875 -40.626457 56.909271 -0.021728009 -2.5095928 -0.020334726 -2.5928097 -37.988583 72.508209
513781250 -39.083046 60.599022 0.0030000694 -2.7045286 -0.025074834 -2.5480192 -38.94014 73.343277
513890625 -38.79213 78.861237 -0.021948928 -2.844017 -0.017001305 -2.7376475 -38.2215 60.560326
514000000 -38.657246 76.837402 -0.020365266 -2.5044525 -0.06550312 -2.8258178 -37.268055 79.15696
514109375 -38.20076 67.723564 -0.039301831 -2.6766953 -0.040551681 -2.4882689 -39.079014 79.893761
514218750 -38.833199 65.406143 -0.024113411 -2.5734634 -0.0006872727 -2.8200254 -38.803535 69.097649
514328125 -40.507675 72.436188 -0.066970661 -2.6553273 -0.040040381 -2.9009664 -37.736004 72.319847
514437500 -40.359615 63.952557 -0.054256998 -2.6529596 -0.023597568 -2.8531001 -38.621338 67.643623
514546875 -37.017818 56.222496 -0.033869259 -2.758105 -0.023824679 -2.7637832 -37.367855 51.816429
514656250 -40.068775 74.406143 -0.04008162 -2.8297119 -0.031306121 -2.4761417 -39.335091 46.558201
514765625 -38.902328 73.448669 -0.044122178 -2.6666789 -0.023985324 -2.6366386 -39.444214 78.381905
514875000 -40.043564 58.476837 -0.050394155 -2.8733141 -0.03252456 -2.5945754 -38.314117 69.336472
514984375 -40.271744 76.088516 -0.04121105 -2.8453274 -0.025620556 -2.6785097 -37.906498 78.684685
515093750 -39.730091 50.722794 -0.038806733 -2.5391805 -0.046562437 -2.7992568 -37.222858 72.383514
515203125 -39.926826 68.676521 -0.063637473 -2.9491911 -0.020690389 -2.835309 -39.347404 64.133354
515312500 -39.516689 68.068283 -0.050485604 -2.6021636 0.0032829379 -2.7696519 -40.003223 71.498833
515421875 -39.06337 56.362965 -0.020352367 -2.5840201 -0.031689543 -2.6411233 -38.04023 98.014305
515531250 -39.407677 58.680691 0.0038708963 -2.4765835 -0.0058857044 -2.5240893 -36.254089 70.03817
515640625 -40.354237 66.893837 -0.025035448 -2.6740091 -0.077091977 -2.6476898 -39.082253 59.553867
515750000 -38.698212 54.754318 -0.02324 -2.6497219 -0.012024241 -2.6695273 -35.769432 59.762852
515859375 -37.870094 63.281616 -0.046062078 -2.7656758 -0.0068560597 -2.5235386 -37.892067 82.521629
515968750 -39.658688 63.465572 -0.012593254 -2.5753956 -0.059873383 -2.8371499 -39.319996 60.997311
516078125 -41.125267 49.106544 -0.016330883 -2.7117357 0.0049128179 -2.6334395 -40.069275 50.37962
516187500 -41.045467 67.128029 -0.021679033 -2.5678918 -0.038875893 -2.6062901 -38.100487 66.119446
516296875 -37.824669 55.11676 0.00083172863 -2.5662053 -0.024766741 -2.50002 -40.204376 62.41827
516406250 -39.889713 71.84449 -0.060577698 -2.5935771 -0.051863834 -2.9137709 -38.440559 64.054352
516515625 -38.36034 74.407684 -0.033182379 -2.7777061 -0.029782891 -2.7833452 -38.517048 59.076382
516625000 -39.471367 64.43531 -0.052039146 -2.7056699 -0.055113584 -2.7832384 -37.436691 66.673592
516734375 -38.687916 61.463467 -0.036915034 -2.766336 -0.058845945 -2.9612534 -37.475605 80.548149
516843750 -39.644386 59.69297 -0.027572833 -2.5418737 -0.03798122 -2.5704172 -37.973335 63.381233
516953125 -38.823719 52.76384 -0.0010467668 -2.7142229 -0.067171343 -2.7984002 -38.945686 61.268547
517062500 -38.360615 58.069359 -0.014886454 -3.0038216 -0.043365516 -2.5931971 -38.910717 64.622879
517171875 -38.744518 56.117222 -0.020759957 -2.5473423 -0.0076683555 -2.5734167 -38.137966 62.873383
517281250 -37.607674 57.901665 0.0044189421 -2.7432239 -0.038567454 -2.7103171 -40.817303 68.373688
517390625 -38.164875 56.517086 -0.040496979 -2.6720333 -0.0033110967 -2.7476614 -38.320686 64.276634
517500000 -38.031315 70.666626 -0.045492716 -2.7665079 -0.015764929 -3.0210412 -38.351219 58.510365
517609375 -39.744347 66.569275 -0.05028687 -2.5682945 -0.021343617 -2.5889428 -37.748699 62.677601
517718750 -40.414787 64.699913 -0.0041770837 -2.6399171 -0.039478663 -2.880398 -38.531338 70.096878
517828125 -37.780666 63.027393 -0.044239219 -2.6037669 -0.018568054 -2.7471881 -37.277622 68.692436
517937500 -38.949612 58.249287 -0.017048072 -2.8350637 -0.017388487 -2.6687524 -37.731808 79.368958
518046875 -37.183235 66.603905 -0.046771407 -2.6610723 0.0013022975 -2.5691874 -40.390102 61.403191
518156250 -38.910671 58.783298 -0.034022789 -2.5620408 -0.057080183 -2.7491422 -39.471455 61.60796
518265625 -39.426258 61.447346 -0.060081158 -2.7494328 -0.050614577 -2.8323345 -37.483959 58.279552
518375000 -38.108837 66.695282 -0.028380115 -2.8262868 -0.030215992 -2.9190891 -38.511768 73.111496
518484375 -39.045738 65.095833 -0.063571207 -2.4043691 -0.013989685 -2.7049448 -39.713268 66.206955
518593750 -39.632557 61.495083 -0.032094583 -2.6725764 -0.010294029 -2.6789134 -39.17725 72.304428
518703125 -38.14489 63.720428 -0.0053015109 -2.6996052 -0.022398174 -2.729116 -36.748684 68.827522
518812500 -37.489861 65.226563 -0.039686754 -2.7105451 -0.060847193 -2.5490863 -40.715221 83.995171
518921875 -37.902054 51.389633 -0.017505759 -2.4953508 -0.08453685 -2.5952308 -37.530228 69.480637
519031250 -41.371822 66.893341 -0.014941493 -2.7574005 -0.017931206 -2.7225959 -39.787773 70.285782
519140625 -39.259296 63.93948 -0.025404938 -2.745455 0.0080900714 -2.7717299 -37.230038 68.232651
519250000 -38.747047 61.239544 -0.037635464 -2.6293409 -0.037382044 -2.7337265 -39.294559 58.562328
519359375 -38.487114 64.539909 -0.018989161 -2.6950874 -0.023945553 -2.7679303 -38.880306 57.163376
519468750 -38.282349 73.015038 -0.029801589 -2.838552 -0.042034175 -2.8059721 -38.113613 73.806396
519578125 -40.683216 64.704369 -0.0010953388 -2.7864215 -0.03763416 -2.7007837 -39.11483 81.596169
519687500 -37.329735 62.296982 -0.01215204 -2.673692 -0.026731342 -2.6334341 -37.893364 73.369843
519796875 -38.78801 65.352554 -0.027184203 -2.8530331 -0.017966516 -2.5811007 -40.847031 59.89455
519906250 -39.725174 43.189491 -0.0080641983 -2.860487 -0.063922793 -2.8425958 -36.595257 71.915718
520015625 -39.470657 53.634567 -0.01146136 -2.5384552 3.8894239e-005 -2.7990453 -39.268829 80.54808
520125000 -39.274559 47.403706 -0.021478014 -2.5340414 -0.01544945 -2.4606586 -40.30476 77.115631
520234375 -39.112396 51.027821 -0.0024872466 -2.6869133 -0.042112134 -2.5325391 -36.722935 72.707344
520343750 -40.196571 67.723633 -0.025022084 -2.5730498 -0.0044300728 -2.6711199 -38.612919 78.20034
520453125 -40.155506 57.513527 -0.041151505 -2.5638599 -0.041636612 -2.7497029 -36.146217 64.850754
520562500 -41.149967 64.71154 -0.04142743 -2.7813973 -0.05728985 -2.7200422 -39.472069 71.031921
520671875 -41.040348 66.256798 0.00033873552 -2.5019159 -0.050780509 -2.767977 -39.507034 70.084213
520781250 -39.503754 59.840263 0.015873889 -2.7628305 -0.01572554 -2.6643009 -39.900536 57.511669
520890625 -39.662006 74.905724 -0.037319664 -2.7944539 -0.018801145 -2.3910182 -38.069836 51.033211
521000000 -40.032593 65.297791 -0.054561134 -2.6526506 -0.040132068 -2.6202223 -39.008759 57.940388
521109375 -40.430367 59.395218 -0.023017535 -2.6187363 -0.03705949 -2.8362658 -39.934322 63.747196
521218750 -39.603477 70.500099 -0.007448466 -2.5263929 -0.070247404 -2.5596976 -37.470821 62.700851
521328125 -41.616055 65.235588 -0.030857457 -2.4599624 -0.055534467 -2.6842356 -38.591286 68.789413
521437500 -36.974808 59.314629 -0.036069021 -2.6910136 -0.025094878 -2.6930776 -36.603374 68.002296
521546875 -39.665585 52.58773 0.00080973079 -2.5935578 -0.014794406 -2.7201931 -37.353344 54.464153
