!Created with skrf (http://scikit-rf.org).
# GHz S RI R 50.0 
!freq ReS11 ImS11
2.0 -0.0016743391752243042 -0.000597044825553894
2.001 -0.0016799569129943848 -0.0006132796406745911
2.002 -0.0016855746507644653 -0.0006070360541343689
2.003 -0.0016837045550346375 -0.0005964189767837524
2.004 -0.0016911998391151428 -0.0005801841616630554
2.005 -0.0016999393701553345 -0.0005926713347434998
2.006 -0.0017018169164657593 -0.0005651935935020447
2.007 -0.0017049387097358704 -0.0005701854825019836
2.008 -0.0017205476760864258 -0.0005464553833007812
2.009 -0.0017367899417877197 -0.0005339682102203369
2.01 -0.0017311722040176392 -0.0005502030253410339
2.011 -0.0017567723989486694 -0.0005408376455307007
2.012 -0.0017449110746383667 -0.0005258470773696899
2.013 -0.0017611458897590637 -0.000501491129398346
2.014 -0.0017680153250694275 -0.0004952475428581238
2.015 -0.0017680153250694275 -0.0005058646202087402
2.016 -0.0017673894762992859 -0.0004633963108062744
2.017 -0.0017879977822303772 -0.00045652687549591064
2.018 -0.0017748847603797913 -0.0004409104585647583
2.019 -0.0017755106091499329 -0.00043091922998428345
2.02 -0.0017905011773109436 -0.0004140585660934448
2.021 -0.0018185973167419434 -0.0004146844148635864
2.022 -0.0018086060881614685 -0.00038470327854156494
2.023 -0.0018123537302017212 -0.0003765895962715149
2.024 -0.0018217265605926514 -0.000355355441570282
2.025 -0.001822352409362793 -0.00034161657094955444
2.026 -0.0018379613757133484 -0.0003235042095184326
2.027 -0.00183858722448349 -0.00032787024974823
2.028 -0.0018442049622535706 -0.000303514301776886
2.029 -0.0018242225050926208 -0.0002766624093055725
2.03 -0.001835457980632782 -0.00024731457233428955
2.031 -0.0018529519438743591 -0.00023856759071350098
2.032 -0.0018379613757133484 -0.00021920353174209595
2.033 -0.0018392056226730347 -0.00020109862089157104
2.034 -0.0018523260951042175 -0.00017923861742019653
2.035 -0.00184670090675354 -0.0001648738980293274
2.036 -0.0018560737371444702 -0.0001461431384086609
2.037 -0.0018348395824432373 -0.00011241436004638672
2.038 -0.001841709017753601 -0.0001155361533164978
2.039 -0.0018179714679718018 -6.557255983352661e-05
2.04 -0.0018248483538627625 -4.871189594268799e-05
2.041 -0.0018323436379432678 -3.497302532196045e-05
2.042 -0.0018367096781730652 -7.495284080505371e-06
2.043 -0.0018279701471328735 4.991888999938965e-06
2.044 -0.0018279701471328735 2.4981796741485596e-05
2.045 -0.001817353069782257 5.4955482482910156e-05
2.046 -0.0017973631620407104 8.743256330490112e-05
2.047 -0.0018004924058914185 0.00011053681373596191
2.048 -0.0017961189150810242 0.00012303143739700317
2.049 -0.001792997121810913 0.0001342669129371643
2.05 -0.0017892494797706604 0.00020359456539154053
2.051 -0.0017780065536499023 0.00019484758377075195
2.052 -0.0017692670226097107 0.00022295117378234863
2.053 -0.0017661377787590027 0.0002498030662536621
2.054 -0.0017424076795578003 0.00026604533195495605
2.055 -0.0017292946577072144 0.0003041401505470276
2.056 -0.0017274245619773865 0.0003172531723976135
2.057 -0.0017149299383163452 0.0003409832715988159
2.058 -0.0017043128609657288 0.0003678426146507263
2.059 -0.001692451536655426 0.000387825071811676
2.06 -0.0016799569129943848 0.00042591989040374756
2.061 -0.001648731529712677 0.0004377812147140503
2.062 -0.00164061039686203 0.0004815012216567993
2.063 -0.0016299933195114136 0.0005021095275878906
2.064 -0.001635618507862091 0.0005102306604385376
2.065 -0.0015912726521492004 0.0005782991647720337
2.066 -0.001577533781528473 0.0005832985043525696
2.067 -0.0015519335865974426 0.0005970373749732971
2.068 -0.0015612989664077759 0.0006170272827148438
2.069 -0.001528821885585785 0.0006457492709159851
2.07 -0.0015069618821144104 0.0006676092743873596
2.071 -0.0014819875359535217 0.0007094517350196838
2.072 -0.0014726147055625916 0.0007281824946403503
2.073 -0.001436389982700348 0.0007500424981117249
2.074 -0.0014039203524589539 0.0007900148630142212
2.075 -0.001398928463459015 0.0008125007152557373
2.076 -0.0013602077960968018 0.0008343532681465149
2.077 -0.0013558343052864075 0.0008443444967269897
2.078 -0.0013314783573150635 0.0008786991238594055
2.079 -0.0013002529740333557 0.0009030550718307495
2.08 -0.0012752711772918701 0.0009280294179916382
2.081 -0.0012421682476997375 0.00094614177942276
2.082 -0.0012215599417686462 0.0009804889559745789
2.083 -0.0011859610676765442 0.0010036006569862366
2.084 -0.0011697262525558472 0.001016087830066681
2.085 -0.0011341273784637451 0.0010454431176185608
2.086 -0.0010997802019119263 0.0010735467076301575
2.087 -0.0010847896337509155 0.0011053979396820068
2.088 -0.001057937741279602 0.0010891631245613098
2.089 -0.0010036081075668335 0.001111641526222229
2.09 -0.0009986087679862976 0.0011309981346130371
2.091 -0.0009548887610435486 0.00115223228931427
2.092 -0.0009124204516410828 0.0011922046542167664
2.093 -0.0008786991238594055 0.0011996999382972717
2.094 -0.0008587166666984558 0.001220308244228363
2.095 -0.000800013542175293 0.001239672303199768
2.096 -0.0007644146680831909 0.0012640208005905151
2.097 -0.0007394328713417053 0.0012715160846710205
2.098 -0.000707581639289856 0.001298375427722931
2.099 -0.0006663650274276733 0.0012827590107917786
2.1 -0.0005814284086227417 0.0012783855199813843
2.101 -0.0005914196372032166 0.0013408437371253967
2.102 -0.0005477070808410645 0.0013489574193954468
2.103 -0.0005252212285995483 0.0013589486479759216
2.104 -0.0004702657461166382 0.0013839304447174072
2.105 -0.00043529272079467773 0.0013901740312576294
2.106 -0.00040656328201293945 0.0014007911086082458
2.107 -0.0003503561019897461 0.0014014169573783875
2.108 -0.00031413882970809937 0.0014126598834991455
2.109 -0.00026541948318481445 0.0014239028096199036
2.11 -0.00023919343948364258 0.0014257729053497314
2.111 -0.000165499746799469 0.0014470070600509644
2.112 -0.00013364851474761963 0.0014538764953613281
2.113 -9.49278473854065e-05 0.001458875834941864
2.114 -6.432831287384033e-05 0.0014526322484016418
2.115 -6.243586540222168e-06 0.001455754041671753
2.116 2.5600194931030273e-05 0.0014601275324821472
2.117 7.369369268417358e-05 0.0014726147055625916
2.118 0.00012927502393722534 0.0014763623476028442
2.119 0.0001798570156097412 0.0014688670635223389
2.12 0.00021857768297195435 0.0014938488602638245
2.121 0.0002572983503341675 0.001476980745792389
2.122 0.000319749116897583 0.0014788582921028137
2.123 0.00037658214569091797 0.0014520063996315002
2.124 0.00040718168020248413 0.0014601200819015503
2.125 0.0004621446132659912 0.0014482587575912476
2.126 0.0005077347159385681 0.0014432594180107117
2.127 0.0005564466118812561 0.0014338940382003784
2.128 0.0006145238876342773 0.0014451295137405396
2.129 0.0006551146507263184 0.0014213994145393372
2.13 0.0006900876760482788 0.0014207735657691956
2.1310000000000002 0.0007475465536117554 0.001402042806148529
2.132 0.0008031278848648071 0.0013751909136772156
2.133 0.000856839120388031 0.0013764351606369019
2.134 0.0008843168616294861 0.0013658255338668823
2.135 0.000941149890422821 0.001325853168964386
2.136 0.0009804889559745789 0.0012989938259124756
2.137 0.0010423213243484497 0.0012977495789527893
2.138 0.0010747984051704407 0.001274019479751587
2.1390000000000002 0.0011078938841819763 0.0012515336275100708
2.14 0.0011890828609466553 0.0012190565466880798
2.141 0.001217186450958252 0.0011940822005271912
2.142 0.0012790113687515259 0.001187831163406372
2.143 0.0013114884495735168 0.0011516138911247253
2.144 0.0013720616698265076 0.0011335015296936035
2.145 0.0013932958245277405 0.0010766685009002686
2.146 0.0014382600784301758 0.0010616853833198547
2.147 0.0014776065945625305 0.0010229572653770447
2.148 0.0015163272619247437 0.0009892359375953674
2.149 0.0015669167041778564 0.0009511411190032959
2.15 0.0016087591648101807 0.0009836181998252869
2.151 0.001642480492591858 0.0008587092161178589
2.152 0.0016824528574943542 0.0008474662899971008
2.153 0.0017317906022071838 0.0008056238293647766
2.154 0.0017636343836784363 0.0007669031620025635
2.155 0.0018042325973510742 0.0007144436240196228
2.156 0.0018367096781730652 0.0006763562560081482
2.157 0.0018666833639144897 0.0006332620978355408
2.158 0.0018991604447364807 0.000590793788433075
2.159 0.0019241422414779663 0.0005395859479904175
2.16 0.0019778460264205933 0.0004996135830879211
2.161 0.0019984617829322815 0.00043029338121414185
2.162 0.002036556601524353 0.0003703385591506958
2.163 0.002065904438495636 0.00033848732709884644
2.164 0.0020827651023864746 0.00028977543115615845
2.165 0.002109624445438385 0.0002341940999031067
2.166 0.002132102847099304 0.00017111748456954956
2.167 0.002158336341381073 0.00011740624904632568
2.168 0.0021770671010017395 6.494671106338501e-05
2.169 0.002190805971622467 1.1242926120758057e-05
2.17 0.0022257789969444275 -6.245076656341553e-05
2.171 0.0022370219230651855 -0.00012428313493728638
2.172 0.00224139541387558 -0.00016736984252929688
2.173 0.00225888192653656 -0.00024356693029403687
2.174 0.002271994948387146 -0.0003047659993171692
2.175 0.002278245985507965 -0.0003678426146507263
2.176 0.0022969767451286316 -0.00042779743671417236
2.177 0.0022926032543182373 -0.0005002394318580627
2.178 0.002317585051059723 -0.0005589425563812256
2.179 0.0023088455200195312 -0.0006232708692550659
2.18 0.002302594482898712 -0.0006801038980484009
2.181 0.002299480140209198 -0.0007500499486923218
2.182 0.002314463257789612 -0.0008362308144569397
2.183 0.0023119673132896423 -0.0008968114852905273
2.184 0.0022926032543182373 -0.0009555146098136902
2.185 0.0022844895720481873 -0.0010223388671875
2.186 0.002278238534927368 -0.0010991543531417847
2.187 0.002262003719806671 -0.0011803433299064636
2.188 0.0022432729601860046 -0.0012352988123893738
2.189 0.002237647771835327 -0.0013102442026138306
2.19 0.002222031354904175 -0.0013864338397979736
2.191 0.0021920576691627502 -0.001450754702091217
2.192 0.0021851882338523865 -0.001520700752735138
2.193 0.002152092754840851 -0.001578785479068756
2.194 0.002132728695869446 -0.001629367470741272
2.195 0.00212772935628891 -0.0017068088054656982
2.196 0.0020946338772773743 -0.0017755106091499329
2.197 0.0020602867007255554 -0.0018179789185523987
2.198 0.0020240619778633118 -0.0018966645002365112
2.199 0.0020053312182426453 -0.001957245171070099
2.2 0.0019647330045700073 -0.002067156136035919
2.201 0.0019266381859779358 -0.0020971372723579407
2.202 0.0018778741359710693 -0.0021923109889030457
2.203 0.0018347352743148804 -0.0022216960787773132
2.204 0.0017997324466705322 -0.0022648274898529053
2.205 0.0017628446221351624 -0.002334214746952057
2.206 0.0017128363251686096 -0.0023823529481887817
2.207 0.0016828328371047974 -0.0024436116218566895
2.208 0.0016203224658966064 -0.002495497465133667
2.209 0.0015659332275390625 -0.002564258873462677
2.21 0.0015115439891815186 -0.002604268491268158
2.211 0.0014752894639968872 -0.002661779522895813
2.212 0.0014071539044380188 -0.0027299150824546814
2.213 0.0013627707958221436 -0.002759300172328949
2.214 0.0012971311807632446 -0.0028205588459968567
2.215 0.0012527480721473694 -0.0028574466705322266
2.216 0.001187734305858612 -0.0028955787420272827
2.217 0.0011295974254608154 -0.002939961850643158
2.218 0.0010864660143852234 -0.002974964678287506
2.219 0.0010145753622055054 -0.003026232123374939
2.22 0.0009633153676986694 -0.0030543580651283264
2.221 0.0009089261293411255 -0.003103114664554596
2.222 0.0008420422673225403 -0.003136247396469116
2.223 0.0007764026522636414 -0.003171883523464203
2.224 0.000711388885974884 -0.0032075121998786926
2.225 0.0006494969129562378 -0.0032350197434425354
2.226 0.000585116446018219 -0.00325939804315567
2.227 0.0005313530564308167 -0.003295034170150757
2.228 0.00045571476221084595 -0.003320038318634033
2.229 0.00037757307291030884 -0.003349415957927704
2.23 0.0003338158130645752 -0.003388799726963043
2.231 0.00026755034923553467 -0.0033975541591644287
2.232 0.00020878762006759644 -0.00340067595243454
2.233 0.0001537799835205078 -0.0034350603818893433
2.234 7.25090503692627e-05 -0.003465689718723297
2.235 1.7501413822174072e-05 -0.003486320376396179
2.236 -3.625452518463135e-05 -0.0034763216972351074
2.237 -0.00010690093040466309 -0.0034981966018676758
2.238 -0.0001775398850440979 -0.003508821129798889
2.239 -0.0002437978982925415 -0.0035031959414482117
2.24 -0.00029131025075912476 -0.0035094469785690308
2.241 -0.00036694854497909546 -0.0035132020711898804
2.242 -0.0004294663667678833 -0.0035206973552703857
2.243 -0.0004888474941253662 -0.0035225749015808105
2.244 -0.0005401074886322021 -0.0035369545221328735
2.245 -0.0006101280450820923 -0.0035269558429718018
2.246 -0.0006788894534111023 -0.00352632999420166
2.247 -0.0007238909602165222 -0.0035207048058509827
2.248 -0.0007857829332351685 -0.0035338327288627625
2.249 -0.0008364170789718628 -0.0034988224506378174
2.25 -0.000895179808139801 -0.0035750865936279297
2.251 -0.0009576901793479919 -0.003488197922706604
2.252 -0.0010095760226249695 -0.0034588128328323364
2.253 -0.0010639652609825134 -0.0034713149070739746
2.254 -0.0011183544993400574 -0.003448188304901123
2.255 -0.0011758580803871155 -0.0034394338726997375
2.256 -0.0012202411890029907 -0.0033900514245033264
2.257 -0.0012758821249008179 -0.0033913031220436096
2.258 -0.001314014196395874 -0.003381296992301941
2.259 -0.0013690218329429626 -0.003347545862197876
2.26 -0.001414656639099121 -0.003347538411617279
2.261 -0.0014584213495254517 -0.0033081620931625366
2.262 -0.0015109255909919739 -0.003290034830570221
2.263 -0.001552186906337738 -0.0032537728548049927
2.264 -0.0015965700149536133 -0.0032475218176841736
2.265 -0.0016459524631500244 -0.003210015594959259
2.266 -0.001678459346294403 -0.0031918883323669434
2.267 -0.0017415955662727356 -0.003166884183883667
2.268 -0.001761600375175476 -0.0031337514519691467
2.269 -0.0018116161227226257 -0.003101244568824768
2.27 -0.0018516182899475098 -0.0030874907970428467
2.271 -0.0018828809261322021 -0.00305311381816864
2.2720000000000007 -0.0019141361117362976 -0.0030162259936332703
2.273 -0.001934140920639038 -0.002991221845149994
2.274 -0.001980394124984741 -0.00293683260679245
2.275 -0.0020147785544395447 -0.002903081476688385
2.276 -0.0020379051566123962 -0.002876199781894684
2.277 -0.002074792981147766 -0.0028643235564231873
2.278 -0.0020954161882400513 -0.00282181054353714
2.279 -0.0021191760897636414 -0.002791181206703186
2.2800000000000007 -0.002149805426597595 -0.0027555525302886963
2.281 -0.0021704286336898804 -0.002724289894104004
2.282 -0.0021891891956329346 -0.002663031220436096
2.283 -0.002212315797805786 -0.002616770565509796
2.284 -0.002232946455478668 -0.0025861412286758423
2.285 -0.0022516995668411255 -0.002551756799221039
2.286 -0.002272956073284149 -0.0025011226534843445
2.287 -0.0022960826754570007 -0.0024704933166503906
2.2880000000000003 -0.0023017078638076782 -0.002436108887195587
2.289 -0.0023192092776298523 -0.0023879781365394592
2.29 -0.002343595027923584 -0.002370476722717285
2.291 -0.0023460909724235535 -0.0023185834288597107
2.292 -0.002367347478866577 -0.002287954092025757
2.293 -0.0023685991764068604 -0.0022385716438293457
2.294 -0.0023861005902290344 -0.002189815044403076
2.295 -0.0023942291736602783 -0.002175435423851013
2.296 -0.002407357096672058 -0.0021273046731948853
2.297 -0.002391725778579712 -0.00209229439496994
2.298 -0.002415485680103302 -0.0020422860980033875
2.299 -0.0024229809641838074 -0.0020085275173187256
2.3 -0.0024192333221435547 -0.0019747689366340637
2.301 -0.002415478229522705 -0.001932881772518158
2.302 -0.0024323612451553345 -0.001889750361442566
2.303 -0.002421729266643524 -0.0018409937620162964
2.304 -0.0024098530411720276 -0.0018072351813316345
2.305 -0.0024161040782928467 -0.0017641037702560425
2.306 -0.002412356436252594 -0.0017253458499908447
2.307 -0.002413608133792877 -0.0016884654760360718
2.308 -0.002397976815700531 -0.0016503259539604187
2.309 -0.0024067312479019165 -0.0016109496355056763
2.31 -0.0024148598313331604 -0.001592196524143219
2.311 -0.0023879781365394592 -0.001534678041934967
2.312 -0.00238172709941864 -0.001515306532382965
2.313 -0.0023698508739471436 -0.001465916633605957
2.314 -0.002375476062297821 -0.0014384165406227112
2.315 -0.002356097102165222 -0.0013802796602249146
2.316 -0.002337343990802765 -0.001371525228023529
2.317 -0.0023423433303833008 -0.0013358965516090393
2.318 -0.0023360922932624817 -0.0012940093874931335
2.319 -0.00232609361410141 -0.0012715086340904236
2.32 -0.002308584749698639 -0.0012383759021759033
2.321 -0.0022904574871063232 -0.001202113926410675
2.322 -0.0022616982460021973 -0.001141481101512909
2.323 -0.002258576452732086 -0.0011389777064323425
2.324 -0.0022467002272605896 -0.0011027231812477112
2.325 -0.00222044438123703 -0.001064591109752655
2.326 -0.0021941885352134705 -0.0010408386588096619
2.327 -0.0021991878747940063 -0.0010352060198783875
2.328 -0.00216105580329895 -0.000992700457572937
2.329 -0.002150431275367737 -0.0009489431977272034
2.33 -0.0021185502409934998 -0.0009220615029335022
2.331 -0.0021097958087921143 -0.0008995607495307922
2.332 -0.002095423638820648 -0.0008745491504669189
2.333 -0.002077914774417877 -0.0008607953786849976
2.334 -0.002064161002635956 -0.0008382946252822876
2.335 -0.0020297765731811523 -0.000780157744884491
2.336 -0.002030402421951294 -0.0007695332169532776
2.337 -0.001988522708415985 -0.000757656991481781
2.338 -0.0019672662019729614 -0.0007132664322853088
2.339 -0.0019547641277313232 -0.0007151439785957336
2.34 -0.0019241347908973694 -0.0006913915276527405
2.341 -0.0019010081887245178 -0.0006557554006576538
2.342 -0.0018916279077529907 -0.0006488785147666931
2.343 -0.0018572434782981873 -0.0006176233291625977
2.344 -0.0018322393298149109 -0.0006044954061508179
2.345 -0.0018022358417510986 -0.0005901232361793518
2.346 -0.0017866045236587524 -0.000573866069316864
2.347 -0.001764729619026184 -0.0005507394671440125
2.348 -0.001737847924232483 -0.0005269795656204224
2.349 -0.0017247200012207031 -0.0005119815468788147
2.35 -0.001686587929725647 -0.00046821683645248413
2.351 -0.0016765817999839783 -0.0004738420248031616
2.352 -0.0016309469938278198 -0.00045884400606155396
2.3529999999999993 -0.0016159489750862122 -0.00045259296894073486
2.354 -0.0015903189778327942 -0.000421963632106781
2.355 -0.0015671849250793457 -0.0004013329744338989
2.356 -0.0015403032302856445 -0.0004107058048248291
2.357 -0.0015259310603141785 -0.0004038289189338684
2.358 -0.0015084296464920044 -0.00039008259773254395
2.359 -0.0014927983283996582 -0.00038444995880126953
2.36 -0.0014634206891059875 -0.00036882609128952026
2.361 -0.0014334097504615784 -0.0003632009029388428
2.362 -0.0014065355062484741 -0.0003544464707374573
2.363 -0.0013815239071846008 -0.00035881996154785156
2.364 -0.0013477727770805359 -0.0003219395875930786
2.365 -0.001336514949798584 -0.00030756741762161255
2.366 -0.0013046413660049438 -0.0003075599670410156
2.367 -0.0012877583503723145 -0.00030881166458129883
2.368 -0.0012640058994293213 -0.00030130892992019653
2.369 -0.0012440010905265808 -0.00029005855321884155
2.37 -0.0012114942073822021 -0.00027630478143692017
2.371 -0.0011964887380599976 -0.00028443336486816406
2.372 -0.0011802390217781067 -0.0002738088369369507
2.373 -0.0011458545923233032 -0.0002375468611717224
2.374 -0.0011264756321907043 -0.0002644285559654236
2.375 -0.001107722520828247 -0.0002631768584251404
2.376 -0.0010895952582359314 -0.00022942572832107544
2.377 -0.001078963279724121 -0.0002625510096549988
2.378 -0.001072712242603302 -0.0002600550651550293
2.379 -0.0010539591312408447 -0.0002700537443161011
2.38 -0.001027710735797882 -0.00026693195104599
2.381 -0.0009914487600326538 -0.0002550482749938965
2.382 -0.0009683221578598022 -0.0002562999725341797
2.383 -0.000963941216468811 -0.0002575516700744629
2.384 -0.0009426921606063843 -0.0002606809139251709
2.385 -0.0009170621633529663 -0.0002681836485862732
2.386 -0.0009026825428009033 -0.0002613067626953125
2.387 -0.0008870512247085571 -0.0002588033676147461
2.388 -0.0008557960391044617 -0.0002675577998161316
2.389 -0.0008307918906211853 -0.0002588033676147461
