!Created with skrf (http://scikit-rf.org).
# GHz S RI R 50.0 
!freq ReS11 ImS11
2.0 0.00046869367361068726 -0.0010481402277946472
2.001 0.0004511699080467224 -0.0010919496417045593
2.002 0.000448666512966156 -0.001150771975517273
2.003 0.0004355236887931824 -0.0011983290314674377
2.004 0.00041237473487854004 -0.0012502670288085938
2.005 0.0004067420959472656 -0.0013078376650810242
2.006 0.00038546323776245117 -0.001349136233329773
2.007 0.00037420541048049927 -0.0014098361134529114
2.008 0.000338532030582428 -0.0014649033546447754
2.009 0.00032539665699005127 -0.0015024468302726746
2.01 0.0002922266721725464 -0.0015643984079360962
2.011 0.00026469677686691284 -0.001608826220035553
2.012 0.00023528188467025757 -0.001657634973526001
2.013 0.0001958608627319336 -0.0016976818442344666
2.014 0.00016644597053527832 -0.0017408579587936401
2.015 0.00012765824794769287 -0.0017834082245826721
2.016 9.010732173919678e-05 -0.0018391013145446777
2.017 3.9421021938323975e-05 -0.0018641352653503418
2.018 -5.0067901611328125e-06 -0.0018847808241844177
2.019 -5.256384611129761e-05 -0.0019360929727554321
2.02 -0.00010763108730316162 -0.0019511133432388306
2.021 -0.00017083436250686646 -0.0019967928528785706
2.022 -0.00020900368690490723 -0.002003677189350128
2.023 -0.0002578124403953552 -0.0020499825477600098
2.024 -0.0003066211938858032 -0.0020549893379211426
2.025 -0.0003779605031013489 -0.002079397439956665
2.026 -0.0004305243492126465 -0.002104423940181732
2.027 -0.0004981011152267456 -0.0021019205451011658
2.028 -0.0005562976002693176 -0.0021181926131248474
2.029 -0.0006019771099090576 -0.0021294504404067993
2.03 -0.0006482824683189392 -0.0021244436502456665
2.031 -0.0007196217775344849 -0.0020994171500205994
2.032 -0.0007728114724159241 -0.0021119341254234314
2.033 -0.0008241236209869385 -0.0021150633692741394
2.034 -0.0008985921740531921 -0.002093784511089325
2.035 -0.0009436458349227905 -0.0020806416869163513
2.036 -0.000994957983493805 -0.0020675063133239746
2.037 -0.001053154468536377 -0.0020487308502197266
2.038 -0.0011057108640670776 -0.002018071711063385
2.039 -0.0011582747101783752 -0.0019811466336250305
2.04 -0.0011970773339271545 -0.0019486099481582642
2.041 -0.0012571439146995544 -0.0019179508090019226
2.042 -0.0012965723872184753 -0.001901678740978241
2.043 -0.0013359934091567993 -0.0018522441387176514
2.044 -0.001379169523715973 -0.001810319721698761
2.045 -0.0014060810208320618 -0.0017608851194381714
2.046 -0.001437366008758545 -0.0017076954245567322
2.047 -0.0014680251479148865 -0.0016601383686065674
2.048 -0.0015118271112442017 -0.0016019418835639954
2.049 -0.0015212148427963257 -0.0015575140714645386
2.05 -0.0015387386083602905 -0.0014993175864219666
2.051 -0.001538112759590149 -0.001426108181476593
2.052 -0.0015437453985214233 -0.001367911696434021
2.053 -0.0015575140714645386 -0.0013047084212303162
2.054 -0.001560010015964508 -0.0012402534484863281
2.055 -0.001563139259815216 -0.0011845603585243225
2.056 -0.0015456229448318481 -0.0011213570833206177
2.057 -0.0015124529600143433 -0.0010443925857543945
2.058 -0.0014880523085594177 -0.0009880736470222473
2.059 -0.0014868006110191345 -0.0009254962205886841
2.06 -0.0014548897743225098 -0.0009029731154441833
2.061 -0.0014023259282112122 -0.0008316338062286377
2.062 -0.0013691559433937073 -0.0007627978920936584
2.063 -0.001322224736213684 -0.0007014721632003784
2.064 -0.0012771710753440857 -0.0006570518016815186
2.065 -0.00122147798538208 -0.0006207525730133057
2.066 -0.001166410744190216 -0.0005625560879707336
2.067 -0.0010932013392448425 -0.0005237609148025513
2.068 -0.0010512769222259521 -0.00050373375415802
2.069 -0.000985570251941681 -0.0004799589514732361
2.07 -0.0009154826402664185 -0.0004417896270751953
2.071 -0.000857912003993988 -0.0004542991518974304
2.072 -0.0007978379726409912 -0.0004267692565917969
2.073 -0.0007327646017074585 -0.00042551755905151367
2.074 -0.0006645545363426208 -0.00042301416397094727
2.075 -0.0006213784217834473 -0.0004430413246154785
2.076 -0.0005694404244422913 -0.00046619027853012085
2.077 -0.0005087405443191528 -0.00046744197607040405
2.078 -0.000451795756816864 -0.0004943534731864929
2.079 -0.0003954768180847168 -0.0005250126123428345
2.08 -0.0003560557961463928 -0.000561930239200592
2.081 -0.00031287968158721924 -0.0005944743752479553
2.082 -0.0002872198820114136 -0.0006464123725891113
2.083 -0.0002509281039237976 -0.0006701871752738953
2.084 -0.00022715330123901367 -0.0007302612066268921
2.085 -0.0002027451992034912 -0.0007834509015083313
2.086 -0.00017146021127700806 -0.0008228719234466553
2.087 -0.000146426260471344 -0.0008760616183280945
2.088 -0.00013141334056854248 -0.0009092241525650024
2.089 -0.00015956908464431763 -0.0009811893105506897
2.09 -0.0001508072018623352 -0.0010274946689605713
2.091 -0.0001514330506324768 -0.0010932013392448425
2.092 -0.0001533105969429016 -0.0011463910341262817
2.093 -0.00016582757234573364 -0.001183934509754181
2.094 -0.00016332417726516724 -0.001245260238647461
2.095 -0.0001946091651916504 -0.0012959465384483337
2.096 -0.00022026896476745605 -0.001342877745628357
2.097 -0.00023903697729110718 -0.0013829246163368225
2.098 -0.00026907771825790405 -0.0014323592185974121
2.099 -0.0003003627061843872 -0.0015011951327323914
2.1 -0.0003454163670539856 -0.0015218406915664673
2.101 -0.00036606937646865845 -0.0015418678522109985
2.102 -0.00041612982749938965 -0.0015825405716896057
2.103 -0.0004530474543571472 -0.0016157105565071106
2.104 -0.0004755780100822449 -0.001654505729675293
2.105 -0.0005431622266769409 -0.0016801580786705017
2.106 -0.0005913451313972473 -0.0017076954245567322
2.107 -0.0006282627582550049 -0.0017402321100234985
2.108 -0.0006651803851127625 -0.0017508715391159058
2.109 -0.0007064789533615112 -0.001775898039340973
2.11 -0.0007646754384040833 -0.0017959251999855042
2.111 -0.0008072257041931152 -0.0017927959561347961
2.112 -0.0008541569113731384 -0.0018034353852272034
2.113 -0.0009161084890365601 -0.0018159523606300354
2.114 -0.0009461492300033569 -0.0018034353852272034
2.115 -0.0009924545884132385 -0.0018059387803077698
2.116 -0.0010425150394439697 -0.0017890408635139465
2.117 -0.0010856911540031433 -0.001794673502445221
2.118 -0.0011344999074935913 -0.001791544258594513
2.119 -0.0011783018708229065 -0.0017815306782722473
2.12 -0.0012233555316925049 -0.0017602592706680298
2.121 -0.0012665316462516785 -0.0017471164464950562
2.122 -0.0013047084212303162 -0.0017471164464950562
2.123 -0.0013622716069221497 -0.001706443727016449
2.124 -0.0014023259282112122 -0.0016820356249809265
2.125 -0.001426100730895996 -0.0016789063811302185
2.126 -0.0014673992991447449 -0.0016351044178009033
2.127 -0.0014805421233177185 -0.0015969350934028625
2.128 -0.0015193372964859009 -0.0015643984079360962
2.129 -0.001553758978843689 -0.001529976725578308
2.13 -0.0015831664204597473 -0.0014980658888816833
2.1310000000000002 -0.0016144514083862305 -0.0014517605304718018
2.132 -0.0016538798809051514 -0.0014248490333557129
2.133 -0.0016595125198364258 -0.0013904348015785217
2.134 -0.0017014369368553162 -0.0013359934091567993
2.135 -0.0017101988196372986 -0.0012984499335289001
2.136 -0.0017214566469192505 -0.0012402534484863281
2.137 -0.0017414838075637817 -0.0012070834636688232
2.138 -0.0017446130514144897 -0.0011526495218276978
2.1390000000000002 -0.001767762005329132 -0.0010950788855552673
2.14 -0.0017652660608291626 -0.0010575279593467712
2.141 -0.0017815306782722473 -0.0010093450546264648
2.142 -0.001782156527042389 -0.0009711757302284241
2.143 -0.0017796531319618225 -0.0009054690599441528
2.144 -0.001779027283191681 -0.0008554160594940186
2.145 -0.0017834082245826721 -0.0007984712719917297
2.146 -0.0017640069127082825 -0.0007502809166908264
2.147 -0.0017383545637130737 -0.0007002279162406921
2.148 -0.0017170831561088562 -0.0006414055824279785
2.149 -0.0017101988196372986 -0.0005857124924659729
2.15 -0.0016807839274406433 -0.0005318969488143921
2.151 -0.0016494989395141602 -0.0004824623465538025
2.152 -0.0016363561153411865 -0.0004449188709259033
2.153 -0.00161820650100708 -0.0003954842686653137
2.154 -0.0015881732106208801 -0.0003479272127151489
2.155 -0.001525595784187317 -0.00030037015676498413
2.156 -0.0015030726790428162 -0.0002584382891654968
2.157 -0.0014480054378509521 -0.00020712614059448242
2.158 -0.0014023259282112122 -0.00016958266496658325
2.159 -0.0013497620820999146 -0.00012828409671783447
2.16 -0.0012915655970573425 -8.76113772392273e-05
2.161 -0.0012465119361877441 -6.445497274398804e-05
2.162 -0.0011895671486854553 -3.3795833587646484e-05
2.163 -0.001120731234550476 -1.0013580322265625e-05
2.164 -0.0010644122958183289 4.380941390991211e-06
2.165 -0.0009868219494819641 3.065913915634155e-05
2.166 -0.0009398907423019409 5.9448182582855225e-05
2.167 -0.0008654221892356873 5.256384611129761e-05
2.168 -0.0007990896701812744 5.94407320022583e-05
2.169 -0.0007471591234207153 5.1937997341156006e-05
2.17 -0.0006764456629753113 6.945431232452393e-05
2.171 -0.0006088614463806152 4.3801963329315186e-05
2.172 -0.0005318969488143921 3.754347562789917e-05
2.173 -0.0004918426275253296 -7.510185241699219e-06
2.174 -0.0004305243492126465 -2.440810203552246e-05
2.175 -0.00037295371294021606 -4.5686960220336914e-05
2.176 -0.00031600892543792725 -9.324401617050171e-05
2.177 -0.00027158111333847046 -0.0001514330506324768
2.178 -0.00023277848958969116 -0.00018209964036941528
2.179 -0.00019273161888122559 -0.00022590160369873047
2.18 -0.00016269832849502563 -0.0002897307276725769
2.181 -0.00013641268014907837 -0.0003354102373123169
2.182 -0.00010763108730316162 -0.0004048645496368408
2.183 -0.00010575354099273682 -0.00047182291746139526
2.184 -9.88692045211792e-05 -0.0005124956369400024
2.185 -0.00010325014591217041 -0.0005869641900062561
2.186 -0.00011576712131500244 -0.0006539151072502136
2.187 -0.00012139976024627686 -0.000705227255821228
2.188 -0.00014141947031021118 -0.0007728114724159241
2.189 -0.00016770511865615845 -0.0008347630500793457
2.19 -0.00020962953567504883 -0.0008942112326622009
2.191 -0.00024154037237167358 -0.0009436458349227905
2.192 -0.0002916008234024048 -0.0009818151593208313
2.193 -0.0003304034471511841 -0.0010274946689605713
2.194 -0.00036481767892837524 -0.0010769292712211609
2.195 -0.00041174888610839844 -0.0011132210493087769
2.196 -0.00046118348836898804 -0.0011276155710220337
2.197 -0.0005206316709518433 -0.001153901219367981
2.198 -0.0005700662732124329 -0.0011876896023750305
2.199 -0.0006213784217834473 -0.0011833086609840393
2.2 -0.0006783232092857361 -0.001178927719593048
2.201 -0.0007327646017074585 -0.001183934509754181
2.202 -0.0007829740643501282 -0.0011934861540794373
2.203 -0.000812917947769165 -0.0011685341596603394
2.204 -0.0008484870195388794 -0.0011373385787010193
2.205 -0.0009071305394172668 -0.001154184341430664
2.206 -0.0009532943367958069 -0.0011198744177818298
2.207 -0.0009838640689849854 -0.001118004322052002
2.208 -0.0010144338011741638 -0.0010805651545524597
2.209 -0.0010506212711334229 -0.001043759286403656
2.21 -0.0010905489325523376 -0.001010693609714508
2.211 -0.0011055245995521545 -0.0009807422757148743
2.212 -0.0011248588562011719 -0.0009408146142959595
2.213 -0.001146078109741211 -0.0009096264839172363
2.214 -0.0011635422706604004 -0.0008690729737281799
2.215 -0.0011666640639305115 -0.0008191615343093872
2.216 -0.0011941120028495789 -0.0007823556661605835
2.217 -0.0012059658765792847 -0.0007442906498908997
2.218 -0.0011941120028495789 -0.0007131025195121765
2.219 -0.0011841356754302979 -0.000679410994052887
2.22 -0.0011885017156600952 -0.0006213933229446411
2.221 -0.001190371811389923 -0.0005827099084854126
2.222 -0.0011766478419303894 -0.0005240663886070251
2.223 -0.0011585503816604614 -0.0004872530698776245
2.224 -0.0011548101902008057 -0.0004342272877693176
2.225 -0.0011398345232009888 -0.0003955438733100891
2.226 -0.001131102442741394 -0.00037557631731033325
2.227 -0.0010942891240119934 -0.0003138110041618347
2.228 -0.0010724514722824097 -0.0002751350402832031
2.229 -0.0010631009936332703 -0.000248931348323822
2.23 -0.0010325312614440918 -0.0002245977520942688
2.231 -0.0010069534182548523 -0.00017219781875610352
2.232 -0.0009763762354850769 -0.00012415647506713867
2.233 -0.0009220987558364868 -8.983910083770752e-05
2.234 -0.0009008869528770447 -6.55055046081543e-05
2.235 -0.0008653253316879272 -4.18052077293396e-05
2.236 -0.0008547231554985046 -6.861984729766846e-06
2.237 -0.0008141696453094482 6.236135959625244e-06
2.238 -0.0007729902863502502 2.8699636459350586e-05
2.239 -0.0007511526346206665 4.928559064865112e-05
2.24 -0.0007068589329719543 6.61313533782959e-05
2.241 -0.0006762892007827759 0.00010106712579727173
2.242 -0.0006363615393638611 0.00011105090379714966
2.243 -0.0006082877516746521 0.00013787299394607544
2.244 -0.0005508884787559509 0.00013537704944610596
2.245 -0.0005034729838371277 0.00016657263040542603
2.246 -0.0004741549491882324 0.0001721903681755066
2.247 -0.00041675567626953125 0.00018841028213500977
2.248 -0.0003830641508102417 0.0001728162169456482
2.249 -0.000346258282661438 0.000184670090675354
2.25 -0.00030133873224258423 0.00021398812532424927
2.251 -0.0002645328640937805 0.000184670090675354
2.252 -0.0002252236008644104 0.00018591433763504028
2.253 -0.00017157196998596191 0.00017593055963516235
2.254 -0.0001447424292564392 0.0001696944236755371
2.255 -8.360296487808228e-05 0.00015223026275634766
2.256 -5.240738391876221e-05 0.00015659630298614502
2.257 -1.2516975402832031e-06 0.00013975054025650024
2.258 2.2456049919128418e-05 0.00012601912021636963
2.259 7.361918687820435e-05 0.00012602657079696655
2.26 0.00011604279279708862 8.484721183776855e-05
2.261 0.00014785677194595337 7.361918687820435e-05
2.262 0.00019153207540512085 3.556162118911743e-05
2.263 0.00021710991859436035 1.2472271919250488e-05
2.264 0.00025641173124313354 -1.7471611499786377e-05
2.265 0.00029509514570236206 -4.554539918899536e-05
2.266 0.0003125593066215515 -8.360296487808228e-05
2.267 0.0003443807363510132 -0.00011042505502700806
2.268 0.0003955364227294922 -0.00013850629329681396
2.269 0.0003917962312698364 -0.00020214170217514038
2.27 0.0004198700189590454 -0.00023271143436431885
2.271 0.00045418739318847656 -0.00028137117624282837
2.2720000000000007 0.0004710257053375244 -0.0003287866711616516
2.273 0.0005003511905670166 -0.00035186856985092163
2.274 0.0005084648728370667 -0.000420495867729187
2.275 0.0005171969532966614 -0.0004623010754585266
2.276 0.0005153268575668335 -0.0005090907216072083
2.277 0.0005302950739860535 -0.0005546361207962036
2.278 0.0005209445953369141 -0.0006263852119445801
2.279 0.0005109608173370361 -0.0006875172257423401
2.2800000000000007 0.0005103349685668945 -0.0007268264889717102
2.281 0.0004922449588775635 -0.0008060559630393982
2.282 0.00047913938760757446 -0.0008472353219985962
2.283 0.0004516914486885071 -0.0008909031748771667
2.284 0.0004329755902290344 -0.000956416130065918
2.285 0.00039304792881011963 -0.0010150596499443054
2.286 0.0003574863076210022 -0.0010512471199035645
2.287 0.00030881911516189575 -0.0011055245995521545
2.2880000000000003 0.00027138739824295044 -0.0011585503816604614
2.289 0.0002376958727836609 -0.00119723379611969
2.29 0.00019153207540512085 -0.0012228116393089294
2.291 0.00015097856521606445 -0.0012608692049980164
2.292 8.484721183776855e-05 -0.0012839511036872864
2.293 3.119558095932007e-05 -0.0013188868761062622
2.294 -3.119558095932007e-05 -0.0013363584876060486
2.295 -9.29608941078186e-05 -0.0013575702905654907
2.296 -0.00015097856521606445 -0.0013700500130653381
2.297 -0.0002133697271347046 -0.001356951892375946
2.298 -0.0002776309847831726 -0.0013875216245651245
2.299 -0.0003294125199317932 -0.0013369843363761902
2.3 -0.00037932395935058594 -0.0013650581240653992
2.301 -0.00042050331830978394 -0.0013201385736465454
2.302 -0.0004610493779182434 -0.001289568841457367
2.303 -0.0005072206258773804 -0.0012683570384979248
2.304 -0.0005334243178367615 -0.0012352913618087769
2.305 -0.0005646124482154846 -0.0011897459626197815
2.306 -0.0005983039736747742 -0.0011529326438903809
2.307 -0.0006139054894447327 -0.0011105090379714966
2.308 -0.0006251335144042969 -0.0010824352502822876
2.309 -0.0006444752216339111 -0.0010088160634040833
2.31 -0.0006457194685935974 -0.000992603600025177
2.311 -0.0006538331508636475 -0.0009408146142959595
2.312 -0.0006432235240936279 -0.0009071305394172668
2.313 -0.0006532073020935059 -0.0008447393774986267
2.314 -0.0006606951355934143 -0.0008303895592689514
2.315 -0.0006357431411743164 -0.0007867142558097839
2.316 -0.0006164014339447021 -0.0007355585694313049
2.317 -0.0005877017974853516 -0.0007018744945526123
2.318 -0.000563986599445343 -0.000659450888633728
2.319 -0.0005515143275260925 -0.0006382390856742859
2.32 -0.0005265623331069946 -0.0006120353937149048
2.321 -0.0005109608173370361 -0.0005758479237556458
2.322 -0.00045668333768844604 -0.000549018383026123
2.323 -0.00044170767068862915 -0.0005246847867965698
2.324 -0.00040365755558013916 -0.0005053430795669556
2.325 -0.00037433207035064697 -0.0004872530698776245
2.326 -0.0003337785601615906 -0.0004753991961479187
2.327 -0.00029011070728302 -0.0004498213529586792
2.328 -0.00026015937328338623 -0.00043173134326934814
2.329 -0.00022897124290466309 -0.0004242435097694397
2.33 -0.0001840442419052124 -0.0004130154848098755
2.331 -0.0001597180962562561 -0.0004242435097694397
2.332 -0.00012040883302688599 -0.00040303170680999756
2.333 -8.672475814819336e-05 -0.00040490180253982544
2.334 -4.741549491882324e-05 -0.0003999099135398865
2.335 -3.182142972946167e-05 -0.0004130154848098755
2.336 -9.98377799987793e-06 -0.000420495867729187
2.337 1.3723969459533691e-05 -0.0004367232322692871
2.338 4.429370164871216e-05 -0.00044046342372894287
2.339 7.985532283782959e-05 -0.00045481324195861816
2.34 0.00011230260133743286 -0.00045730918645858765
2.341 0.00010979920625686646 -0.00048288702964782715
2.342 0.00014224648475646973 -0.0004953667521476746
2.343 0.00017718225717544556 -0.0005140826106071472
2.344 0.0002102479338645935 -0.0005284324288368225
2.345 0.00023145973682403564 -0.0005446523427963257
2.346 0.00023956596851348877 -0.000577092170715332
2.347 0.00027014315128326416 -0.000590197741985321
2.348 0.0002763792872428894 -0.0006132796406745911
2.349 0.00029509514570236206 -0.0006413534283638
2.35 0.0003044530749320984 -0.0006613209843635559
2.351 0.0003294125199317932 -0.000697501003742218
2.352 0.00034562498331069946 -0.0007343143224716187
2.3529999999999993 0.0003556087613105774 -0.0007555261254310608
2.354 0.00036185234785079956 -0.0007767379283905029
2.355 0.00038680434226989746 -0.0008197873830795288
2.356 0.0003849342465400696 -0.0008578449487686157
2.357 0.00038555264472961426 -0.0008909031748771667
2.358 0.00040178000926971436 -0.0009139925241470337
2.359 0.0004086419939994812 -0.0009557902812957764
2.36 0.00041737407445907593 -0.000984489917755127
2.361 0.0004123896360397339 -0.0010250359773635864
2.362 0.00040365010499954224 -0.0010674670338630676
2.363 0.000420495867729187 -0.001099906861782074
2.364 0.00043858587741851807 -0.0011223703622817993
2.365 0.0004217401146888733 -0.0011660382151603699
2.366 0.00042673200368881226 -0.00118912011384964
2.367 0.0004335939884185791 -0.0012215599417686462
2.368 0.0004086419939994812 -0.0012777149677276611
2.369 0.0003861859440803528 -0.0013220086693763733
2.37 0.00040365010499954224 -0.0013313665986061096
2.371 0.00037682801485061646 -0.0013712942600250244
2.372 0.00036497414112091064 -0.001413092017173767
2.373 0.000356234610080719 -0.0014374256134033203
2.374 0.000356234610080719 -0.001489207148551941
2.375 0.0003269091248512268 -0.0015316307544708252
2.376 0.00029509514570236206 -0.001551598310470581
2.377 0.00028386712074279785 -0.00157967209815979
2.378 0.00025328993797302246 -0.0016295835375785828
2.379 0.00023208558559417725 -0.001640811562538147
2.38 0.00020900368690490723 -0.001681990921497345
2.381 0.00016283243894577026 -0.0017063170671463013
2.382 0.00012477487325668335 -0.0017487481236457825
2.383 0.00010106712579727173 -0.001772455871105194
