!Created with skrf (http://scikit-rf.org).
# GHz S RI R 50.0 
!freq ReS11 ImS11
2.0 -0.0021969079971313477 0.00036375224590301514
2.001 -0.0021768659353256226 0.00031428784132003784
2.002 -0.002148069441318512 0.0003480985760688782
2.003 -0.0021405592560768127 0.00036312639713287354
2.004 -0.002110503613948822 0.0003881677985191345
2.005 -0.0020848363637924194 0.0004119575023651123
2.006 -0.0020710602402687073 0.0004157125949859619
2.007 -0.0020347535610198975 0.00045327842235565186
2.008 -0.0020316168665885925 0.0004482641816139221
2.009 -0.0020034462213516235 0.0004839599132537842
2.01 -0.001984037458896637 0.0004945993423461914
2.011 -0.001970261335372925 0.0005258992314338684
2.012 -0.0019445940852165222 0.0005415529012680054
2.013 -0.0019383355975151062 0.0005515739321708679
2.014 -0.0019164234399795532 0.0005741119384765625
2.015 -0.001888871192932129 0.0005834996700286865
2.016 -0.0018819868564605713 0.0006104186177253723
2.017 -0.0018563196063041687 0.0006179362535476685
2.018 -0.0018281415104866028 0.0006241947412490845
2.019 -0.0018118694424629211 0.0006354674696922302
2.02 -0.0017805621027946472 0.0006711557507514954
2.021 -0.0017586499452590942 0.0006849244236946106
2.022 -0.0017567723989486694 0.0006943196058273315
2.023 -0.001726098358631134 0.0006930679082870483
2.024 -0.001688532531261444 0.0007037073373794556
2.025 -0.0016691237688064575 0.0007506608963012695
2.026 -0.0016447082161903381 0.0007512941956520081
2.027 -0.0016240403056144714 0.0007694438099861145
2.028 -0.0015946179628372192 0.0007938668131828308
2.029 -0.0015758350491523743 0.0008007511496543884
2.03 -0.00154954195022583 0.0008257925510406494
2.031 -0.0015282556414604187 0.0008333101868629456
2.032 -0.0014831796288490295 0.0008477047085762024
2.033 -0.0014725327491760254 0.0008627325296401978
2.034 -0.0014493688941001892 0.0008621066808700562
2.035 -0.0014374703168869019 0.0008858963847160339
2.036 -0.0013999119400978088 0.0008877739310264587
2.037 -0.0013692304491996765 0.0009046792984008789
2.038 -0.0013542026281356812 0.0009334757924079895
2.039 -0.0013360455632209778 0.0009247139096260071
2.04 -0.0013053715229034424 0.0009441226720809937
2.041 -0.001277826726436615 0.0009528845548629761
2.042 -0.0012534111738204956 0.0009660348296165466
2.043 -0.0012314915657043457 0.00098419189453125
2.044 -0.0011951848864555359 0.0009823143482208252
2.045 -0.0011682584881782532 0.000981062650680542
2.046 -0.0011382102966308594 0.0010042265057563782
2.047 -0.0011194273829460144 0.0010023489594459534
2.048 -0.0010931342840194702 0.0010261386632919312
2.049 -0.001065582036972046 0.0010242611169815063
2.05 -0.0010580718517303467 0.0010712146759033203
2.051 -0.0010198801755905151 0.0010449215769767761
2.052 -0.00098419189453125 0.0010480508208274841
2.053 -0.000971674919128418 0.0010511800646781921
2.054 -0.0009447485208511353 0.0010605677962303162
2.055 -0.000909067690372467 0.0010662078857421875
2.056 -0.0008833929896354675 0.0010624527931213379
2.057 -0.0008683726191520691 0.0010724663734436035
2.058 -0.0008439496159553528 0.0010831132531166077
2.059 -0.0008026286959648132 0.0010906234383583069
2.06 -0.0007838532328605652 0.0010818615555763245
2.061 -0.0007569268345832825 0.0010912492871284485
2.062 -0.0007206127047538757 0.0010956302285194397
2.063 -0.0007012113928794861 0.001095004379749298
2.064 -0.0006730332970619202 0.0011162906885147095
2.065 -0.0006385967135429382 0.0011238008737564087
2.066 -0.0006254538893699646 0.0011112838983535767
2.067 -0.0005947723984718323 0.0011256858706474304
2.068 -0.0005772411823272705 0.0011225566267967224
2.069 -0.0005365535616874695 0.0011187940835952759
2.07 -0.0005183890461921692 0.0011225491762161255
2.071 -0.0004908442497253418 0.0011144131422042847
2.072 -0.0004601702094078064 0.0011269375681877136
2.073 -0.00042010098695755005 0.001116916537284851
2.074 -0.0004107058048248291 0.0011131614446640015
2.075 -0.0003850385546684265 0.001110658049583435
2.076 -0.0003568604588508606 0.0011144131422042847
2.077 -0.00033745914697647095 0.0011006370186805725
2.078 -0.0003011450171470642 0.0011062771081924438
2.079 -0.00029237568378448486 0.0011081546545028687
2.08 -0.0002479255199432373 0.0010849907994270325
2.081 -0.0002128705382347107 0.0011018961668014526
2.082 -0.00020410120487213135 0.0010818541049957275
2.083 -0.000167161226272583 0.0010899975895881653
2.084 -0.00014274567365646362 0.0010899975895881653
2.085 -0.00011332333087921143 0.0010818615555763245
2.086 -8.577108383178711e-05 0.0010843649506568909
2.087 -6.636232137680054e-05 0.0010818615555763245
2.088 -3.381073474884033e-05 0.0010624527931213379
2.089 -1.1272728443145752e-05 0.001060575246810913
2.09 3.5062432289123535e-05 0.0010386556386947632
2.091 3.631412982940674e-05 0.0010561943054199219
2.092 5.258619785308838e-05 0.0010317713022232056
2.093 9.515881538391113e-05 0.0010255128145217896
2.094 0.00012709200382232666 0.0010361596941947937
2.095 0.00014462321996688843 0.001024886965751648
2.096 0.000167161226272583 0.001002974808216095
2.097 0.000192202627658844 0.0009835660457611084
2.098 0.00022976845502853394 0.0009804293513298035
2.099 0.0002510547637939453 0.0009629055857658386
2.1 0.00020033866167068481 0.0010255128145217896
2.101 0.00029112398624420166 0.0009366124868392944
2.102 0.0003268122673034668 0.0009322240948677063
2.103 0.0003524795174598694 0.0009209588170051575
2.104 0.00036688148975372314 0.0009190812706947327
2.105 0.00040193647146224976 0.0008833929896354675
2.106 0.00042760372161865234 0.0008727461099624634
2.107 0.0004351213574409485 0.0008533373475074768
2.108 0.0004651769995689392 0.0008395686745643616
2.109 0.0004883408546447754 0.0008320510387420654
2.11 0.000507749617099762 0.0008245408535003662
2.111 0.0005302876234054565 0.000823289155960083
2.112 0.0005609616637229919 0.000807635486125946
2.113 0.0005903914570808411 0.0007788389921188354
2.114 0.0006179362535476685 0.0007581785321235657
2.115 0.0006223171949386597 0.0007343888282775879
2.116 0.000640474259853363 0.0007300004363059998
2.117 0.0006836727261543274 0.0007187351584434509
2.118 0.0007005780935287476 0.0006767883896827698
2.119 0.0007206127047538757 0.0006880536675453186
2.12 0.0007350072264671326 0.0006523728370666504
2.121 0.0007656887173652649 0.0006392225623130798
2.122 0.0007850974798202515 0.0006254464387893677
2.123 0.0008157789707183838 0.0005885139107704163
2.124 0.0008301734924316406 0.0005866289138793945
2.125 0.000848330557346344 0.0005534514784812927
2.126 0.0008727461099624634 0.0005377978086471558
2.127 0.0008990466594696045 0.0005083754658699036
2.128 0.0009046792984008789 0.00048332661390304565
2.129 0.0009240880608558655 0.00047644227743148804
2.13 0.0009328499436378479 0.0004307404160499573
2.1310000000000002 0.0009516328573226929 0.00039192289113998413
2.132 0.000971667468547821 0.00039067119359970093
2.133 0.0009910762310028076 0.0003549829125404358
2.134 0.0010010972619056702 0.0003387033939361572
2.135 0.00102175772190094 0.00031115859746932983
2.136 0.0010461732745170593 0.00029300153255462646
2.137 0.001059316098690033 0.0002548098564147949
2.138 0.001066833734512329 0.00024103373289108276
2.1390000000000002 0.0010818541049957275 0.00020597875118255615
2.14 0.0011037737131118774 0.00018218904733657837
2.141 0.0011100322008132935 0.0001690387725830078
2.142 0.0011275634169578552 0.00013899058103561401
2.143 0.001154482364654541 0.00012145936489105225
2.144 0.0011557340621948242 8.38935375213623e-05
2.145 0.0011588633060455322 5.634129047393799e-05
2.146 0.0011676326394081116 2.629309892654419e-05
2.147 0.0011820346117019653 1.9408762454986572e-05
2.148 0.0012008175253868103 -2.942979335784912e-05
2.149 0.0011976808309555054 -7.011741399765015e-05
2.15 0.0012145861983299255 -7.450580596923828e-05
2.151 0.0012258589267730713 -0.00012020766735076904
2.152 0.0012195929884910583 -0.00014337152242660522
2.153 0.0012321174144744873 -0.00018531829118728638
2.154 0.0012396275997161865 -0.00022851675748825073
2.155 0.001255907118320465 -0.00025669485330581665
2.156 0.0012483969330787659 -0.0002723485231399536
2.157 0.0012427642941474915 -0.00030866265296936035
2.158 0.0012565329670906067 -0.0003537386655807495
2.159 0.0012659281492233276 -0.0003837868571281433
2.16 0.0012690573930740356 -0.00039693713188171387
2.161 0.0012797042727470398 -0.00042323023080825806
2.162 0.001290343701839447 -0.0004714354872703552
2.163 0.0012759417295455933 -0.0005090013146400452
2.164 0.0012796968221664429 -0.0005277842283248901
2.165 0.0012847110629081726 -0.0005559548735618591
2.166 0.0012640506029129028 -0.0006004050374031067
2.167 0.0012696832418441772 -0.0006411075592041016
2.168 0.001280948519706726 -0.0006617680191993713
2.169 0.0012803226709365845 -0.0006961971521377563
2.17 0.0012734383344650269 -0.0007325112819671631
2.171 0.0012690573930740356 -0.0007681995630264282
2.172 0.0012721866369247437 -0.000795118510723114
2.173 0.0012571588158607483 -0.0008333101868629456
2.174 0.0012734383344650269 -0.000863984227180481
2.175 0.0012665539979934692 -0.0008852779865264893
2.176 0.0012452676892280579 -0.0009453818202018738
2.177 0.0012440159916877747 -0.0009604021906852722
2.178 0.0012458860874176025 -0.000999845564365387
2.179 0.001229614019393921 -0.0010223835706710815
2.18 0.001217089593410492 -0.001069970428943634
2.181 0.0012183412909507751 -0.0010712221264839172
2.182 0.0012039467692375183 -0.0011206790804862976
2.183 0.0012001842260360718 -0.0011501014232635498
2.184 0.0011864155530929565 -0.0011770278215408325
2.185 0.0011707618832588196 -0.001224607229232788
2.186 0.001154482364654541 -0.0012577921152114868
2.187 0.001148223876953125 -0.0012784525752067566
2.188 0.0011150389909744263 -0.0013041198253631592
2.189 0.001110658049583435 -0.0013460665941238403
2.19 0.0011018961668014526 -0.0013836324214935303
2.191 0.0010906234383583069 -0.0014011561870574951
2.192 0.0010712146759033203 -0.0014406070113182068
2.193 0.0010549351572990417 -0.0014719069004058838
2.194 0.0010355263948440552 -0.0014944449067115784
2.195 0.0010286420583724976 -0.0015257522463798523
2.196 0.0010180026292800903 -0.0015551745891571045
2.197 0.0010004714131355286 -0.001583971083164215
2.198 0.0009929612278938293 -0.0015896111726760864
2.199 0.0009697899222373962 -0.0016221702098846436
2.2 0.0009397417306900024 -0.0016941651701927185
2.201 0.0009171962738037109 -0.0016860291361808777
2.202 0.0008778572082519531 -0.0017476007342338562
2.203 0.0008578673005104065 -0.0017569735646247864
2.204 0.0008459910750389099 -0.0017757117748260498
2.205 0.0008153766393661499 -0.0018113255500793457
2.206 0.0007885098457336426 -0.001823820173740387
2.207 0.0007635205984115601 -0.0018481910228729248
2.208 0.0007335245609283447 -0.001891300082206726
2.209 0.0007247775793075562 -0.0019031763076782227
2.21 0.0006891638040542603 -0.0019344165921211243
2.211 0.0006785467267036438 -0.0019431635737419128
2.212 0.0006416812539100647 -0.0019394159317016602
2.213 0.0006191879510879517 -0.0019825249910354614
2.214 0.0006004422903060913 -0.0020125210285186768
2.215 0.0005854442715644836 -0.002031885087490082
2.216 0.0005473271012306213 -0.002039380371570587
2.217 0.0005242154002189636 -0.002076871693134308
2.218 0.0004917234182357788 -0.0020918697118759155
2.219 0.00047297775745391846 -0.002102486789226532
2.22 0.0004304945468902588 -0.002123109996318817
2.221 0.00040862709283828735 -0.002150602638721466
2.222 0.000378631055355072 -0.002169966697692871
2.223 0.0003567636013031006 -0.002189338207244873
2.224 0.0003136545419692993 -0.0022143274545669556
2.225 0.00029678642749786377 -0.0022080838680267334
2.226 0.0002780407667160034 -0.0022274553775787354
2.227 0.00022929906845092773 -0.0022468194365501404
2.228 0.0002093091607093811 -0.002263687551021576
2.229 0.00019556283950805664 -0.0022755637764930725
2.23 0.00016494840383529663 -0.0022774413228034973
2.231 0.00013370811939239502 -0.002300553023815155
2.232 0.00011121481657028198 -0.0023093000054359436
2.233 7.06017017364502e-05 -0.0023124217987060547
2.234 4.4986605644226074e-05 -0.0023467913269996643
2.235 3.873556852340698e-05 -0.0023317933082580566
2.236 -8.121132850646973e-06 -0.002348661422729492
2.237 -1.9997358322143555e-05 -0.0023574084043502808
2.238 -5.998462438583374e-05 -0.0023711547255516052
2.239 -8.622556924819946e-05 -0.0023692846298217773
2.24 -0.00011746585369110107 -0.002364911139011383
2.241 -0.00013683736324310303 -0.002383030951023102
2.242 -0.00016494840383529663 -0.0023998990654945374
2.243 -0.00019681453704833984 -0.002398647367954254
2.244 -0.00022743642330169678 -0.002402395009994507
2.245 -0.00023867934942245483 -0.00241301953792572
2.246 -0.0002636760473251343 -0.002408646047115326
2.247 -0.00030741095542907715 -0.0024386346340179443
2.248 -0.00033427774906158447 -0.0024123936891555786
2.249 -0.0003580152988433838 -0.0024186447262763977
2.25 -0.00038363784551620483 -0.002493619918823242
2.251 -0.00041300058364868164 -0.0024367645382881165
2.252 -0.0004223734140396118 -0.0024242624640464783
2.253 -0.0004648640751838684 -0.0024336352944374084
2.254 -0.00048798322677612305 -0.002429261803627014
2.255 -0.0005167201161384583 -0.0024480149149894714
2.256 -0.0005473345518112183 -0.0024305135011672974
2.257 -0.0005598291754722595 -0.002434268593788147
2.258 -0.0005810782313346863 -0.00242488831281662
2.259 -0.0006048157811164856 -0.0024367645382881165
2.26 -0.0006316825747489929 -0.0024298876523971558
2.261 -0.000657305121421814 -0.0024286434054374695
2.262 -0.0006854161620140076 -0.0024242624640464783
2.263 -0.000707283616065979 -0.0024073943495750427
2.264 -0.0007372796535491943 -0.0024111494421958923
2.265 -0.0007504001259803772 -0.0024142712354660034
2.266 -0.0007753893733024597 -0.002409897744655609
2.267 -0.0008003860712051392 -0.00240364670753479
2.268 -0.0008334964513778687 -0.002401776611804962
2.269 -0.0008491203188896179 -0.002392403781414032
2.27 -0.000874735414981842 -0.0023980215191841125
2.271 -0.0008903518319129944 -0.002384282648563385
2.2720000000000007 -0.000921592116355896 -0.0024048984050750732
2.273 -0.0009428411722183228 -0.0023998990654945374
2.274 -0.0009659603238105774 -0.0023705363273620605
2.275 -0.0009797066450119019 -0.002359911799430847
2.276 -0.0009984448552131653 -0.002340540289878845
2.277 -0.0010353103280067444 -0.0023380443453788757
2.278 -0.001050308346748352 -0.0023436695337295532
2.279 -0.0010621771216392517 -0.002341166138648987
2.2800000000000007 -0.001085922122001648 -0.0023186728358268738
2.281 -0.0010984167456626892 -0.002308674156665802
2.282 -0.0011259093880653381 -0.0023030564188957214
2.283 -0.0011346563696861267 -0.0022849366068840027
2.284 -0.0011634007096290588 -0.002279937267303467
2.285 -0.0011715218424797058 -0.0022643133997917175
2.286 -0.0012027621269226074 -0.002278059720993042
2.287 -0.0012077614665031433 -0.002252444624900818
2.2880000000000003 -0.0012208819389343262 -0.002219952642917633
2.289 -0.0012458711862564087 -0.002229951322078705
2.29 -0.0012558698654174805 -0.002211831510066986
2.291 -0.001292109489440918 -0.0021987110376358032
2.292 -0.0012896135449409485 -0.002194337546825409
2.293 -0.0013327226042747498 -0.002184338867664337
2.294 -0.0013270974159240723 -0.002160601317882538
2.295 -0.0013414695858955383 -0.002149350941181183
2.296 -0.0013458430767059326 -0.002128101885318756
2.297 -0.001378960907459259 -0.0021293610334396362
2.298 -0.0013845860958099365 -0.002115607261657715
2.299 -0.0014008283615112305 -0.0021081119775772095
2.3 -0.0014070719480514526 -0.0021356046199798584
2.301 -0.0014189481735229492 -0.002068750560283661
2.302 -0.0014358162879943848 -0.002046257257461548
2.303 -0.001459561288356781 -0.0020387545228004456
2.304 -0.001453310251235962 -0.0020100176334381104
2.305 -0.0014914199709892273 -0.0020112693309783936
2.306 -0.0014926716685295105 -0.0020143911242485046
2.307 -0.0015101656317710876 -0.0019794031977653503
2.308 -0.0015082955360412598 -0.00198189914226532
2.309 -0.0015339106321334839 -0.0019644051790237427
2.31 -0.0015414059162139893 -0.001938164234161377
2.311 -0.0015476569533348083 -0.001918792724609375
2.312 -0.001562654972076416 -0.0019000470638275146
2.313 -0.001577027142047882 -0.001907549798488617
2.314 -0.0015920177102088928 -0.0018869265913963318
2.315 -0.001590147614479065 -0.0018519386649131775
2.316 -0.0015863999724388123 -0.0018475651741027832
2.317 -0.0015945136547088623 -0.0018282011151313782
2.318 -0.0016101375222206116 -0.0018225759267807007
2.319 -0.0016307607293128967 -0.0018050819635391235
2.32 -0.0016145110130310059 -0.0017694681882858276
2.321 -0.0016326308250427246 -0.001762591302394867
2.322 -0.0016444995999336243 -0.0017326027154922485
2.323 -0.001640133559703827 -0.0017250999808311462
2.324 -0.0016563758254051208 -0.0017257258296012878
2.325 -0.0016488730907440186 -0.001698233187198639
2.326 -0.0016670003533363342 -0.0016663745045661926
2.327 -0.0016726180911064148 -0.0016476288437843323
2.328 -0.0016694962978363037 -0.001651376485824585
2.329 -0.0016744956374168396 -0.0016263797879219055
2.33 -0.0016751214861869812 -0.0016051381826400757
2.331 -0.0016857385635375977 -0.001593269407749176
2.332 -0.0016826167702674866 -0.0015695244073867798
2.333 -0.0016832426190376282 -0.0015589073300361633
2.334 -0.001681990921497345 -0.0015264153480529785
2.335 -0.0016782432794570923 -0.0015120431780815125
2.336 -0.001676991581916809 -0.0015032961964607239
2.337 -0.0016951113939285278 -0.0014945492148399353
2.338 -0.001680120825767517 -0.0014795511960983276
2.339 -0.0016857385635375977 -0.0014670565724372864
2.34 -0.001698233187198639 -0.0014514327049255371
2.341 -0.0016807466745376587 -0.0014295652508735657
2.342 -0.001701362431049347 -0.0014070793986320496
2.343 -0.0016857385635375977 -0.0013977065682411194
2.344 -0.0016907379031181335 -0.0013683363795280457
2.345 -0.0016719922423362732 -0.0013658404350280762
2.346 -0.001685112714767456 -0.0013395994901657104
2.347 -0.001688241958618164 -0.0013233497738838196
2.348 -0.0016926154494285583 -0.0013271048665046692
2.349 -0.0016732439398765564 -0.0013046041131019592
2.35 -0.0016788691282272339 -0.0012914836406707764
2.351 -0.001680120825767517 -0.0012746155261993408
2.352 -0.001673869788646698 -0.0012458711862564087
2.3529999999999993 -0.0016619935631752014 -0.0012396275997161865
2.354 -0.0016663745045661926 -0.0012183859944343567
2.355 -0.0016557499766349792 -0.0011996403336524963
2.356 -0.0016520023345947266 -0.0011858940124511719
2.357 -0.001648247241973877 -0.0011796429753303528
2.358 -0.0016557499766349792 -0.001155272126197815
2.359 -0.001637004315853119 -0.0011558979749679565
2.36 -0.0016395077109336853 -0.001139029860496521
2.361 -0.0016338825225830078 -0.0011127889156341553
2.362 -0.0016270056366920471 -0.0010996684432029724
2.363 -0.0016257613897323608 -0.001072801649570465
2.364 -0.0016270056366920471 -0.0010740533471107483
2.365 -0.00160951167345047 -0.0010540559887886047
2.366 -0.0016113892197608948 -0.0010465607047080994
2.367 -0.0016120076179504395 -0.001042187213897705
2.368 -0.0016170144081115723 -0.0010153204202651978
2.369 -0.0015970170497894287 -0.0010128170251846313
2.37 -0.0015926435589790344 -0.001002199947834015
2.371 -0.001577027142047882 -0.0009878277778625488
2.372 -0.0015651509165763855 -0.0009565874934196472
2.373 -0.0015776529908180237 -0.0009503364562988281
2.374 -0.0015520304441452026 -0.0009478405117988586
2.375 -0.0015451610088348389 -0.0009240955114364624
2.376 -0.0015464052557945251 -0.0009209737181663513
2.377 -0.0015526562929153442 -0.0009116008877754211
2.378 -0.0015270411968231201 -0.0008759871125221252
2.379 -0.0015239119529724121 -0.0008703619241714478
2.38 -0.0015326589345932007 -0.0008766129612922668
2.381 -0.0015201643109321594 -0.0008597448468208313
2.382 -0.001493297517299652 -0.0008378699421882629
2.383 -0.0014914274215698242 -0.0008266270160675049
2.384 -0.0014770552515983582 -0.0008028820157051086
2.385 -0.0014814287424087524 -0.0008003860712051392
2.386 -0.0014583095908164978 -0.0007997602224349976
2.387 -0.0014526844024658203 -0.0007847622036933899
2.388 -0.0014558061957359314 -0.0007803887128829956
