!Created with skrf (http://scikit-rf.org).
# GHz S RI R 50.0 
!freq ReS11 ImS11
2.0 -0.002849973738193512 0.001044243574142456
2.001 -0.0028081536293029785 0.00100678950548172
2.002 -0.0027756989002227783 0.0010273829102516174
2.003 -0.002753227949142456 0.0010860636830329895
2.004 -0.0027051642537117004 0.001117892563343048
2.005 -0.0026577338576316833 0.0011422336101531982
2.006 -0.0026246458292007446 0.0011809319257736206
2.007 -0.0025953128933906555 0.0012152642011642456
2.008 -0.0025572404265403748 0.0012595802545547485
2.009 -0.002529151737689972 0.0012945309281349182
2.01 -0.0024729743599891663 0.0013220012187957764
2.011 -0.0024480074644088745 0.0013532042503356934
2.012 -0.002396203577518463 0.0013738051056861877
2.013 -0.002361871302127838 0.0014324784278869629
2.014 -0.002305075526237488 0.00147179514169693
2.015 -0.0022694915533065796 0.0014948919415473938
2.016 -0.0022139400243759155 0.0015385821461677551
2.017 -0.002155892550945282 0.0015598013997077942
2.018 -0.002123437821865082 0.001592889428138733
2.019 -0.0020809918642044067 0.0016234740614891052
2.02 -0.0020310580730438232 0.0016671642661094666
2.021 -0.001975506544113159 0.0016759037971496582
2.022 -0.0019505396485328674 0.001708984375
2.023 -0.0018812566995620728 0.0017283335328102112
2.024 -0.0018494278192520142 0.0017451867461204529
2.025 -0.0018094778060913086 0.0017788931727409363
2.026 -0.0017495602369308472 0.001800738275051117
2.027 -0.00170087069272995 0.0018194615840911865
2.028 -0.0016559362411499023 0.001851297914981842
2.029 -0.0015916377305984497 0.0018800050020217896
2.03 -0.001545451581478119 0.0018893703818321228
2.031 -0.001491151750087738 0.0019193291664123535
2.032 -0.0014449656009674072 0.0019393041729927063
2.033 -0.001399397850036621 0.0019505396485328674
2.034 -0.0013444721698760986 0.001958027482032776
2.035 -0.0012957826256752014 0.0019798725843429565
2.036 -0.0012502148747444153 0.001980498433113098
2.037 -0.0011846870183944702 0.0019730105996131897
2.038 -0.001139119267463684 0.002006717026233673
2.039 -0.0010923072695732117 0.002011708915233612
2.04 -0.0010167807340621948 0.0020335540175437927
2.041 -0.0009818300604820251 0.00203792005777359
2.042 -0.0009244009852409363 0.002066008746623993
2.043 -0.0008744671940803528 0.002061016857624054
2.044 -0.0008195415139198303 0.002067260444164276
2.045 -0.0007702335715293884 0.002051025629043579
2.046 -0.0007134303450584412 0.0020809918642044067
2.047 -0.0006528869271278381 0.002080366015434265
2.048 -0.0006048232316970825 0.002093471586704254
2.049 -0.0005605071783065796 0.002075374126434326
2.05 -0.0005018338561058044 0.0020928457379341125
2.051 -0.00043816864490509033 0.0020928531885147095
2.052 -0.0003919824957847595 0.0020603910088539124
2.053 -0.000342048704624176 0.0020635128021240234
2.054 -0.0003002285957336426 0.0020716264843940735
2.055 -0.0002296939492225647 0.002084113657474518
2.056 -0.00018600374460220337 0.0020522773265838623
2.057 -0.0001310780644416809 0.002044789493083954
2.058 -8.36402177810669e-05 0.00205414742231369
2.059 -2.2470951080322266e-05 0.0020241886377334595
2.06 1.3731420040130615e-05 0.00203792005777359
2.061 6.490945816040039e-05 0.002014830708503723
2.062 0.00010548532009124756 0.0020073354244232178
2.063 0.00017289072275161743 0.001984238624572754
2.064 0.0002122148871421814 0.001967385411262512
2.065 0.0002502948045730591 0.0019736364483833313
2.066 0.0003064647316932678 0.0019330605864524841
2.067 0.0003395453095436096 0.0019224509596824646
2.068 0.00038886070251464844 0.001900605857372284
2.069 0.00043691694736480713 0.0018831267952919006
2.07 0.0004893466830253601 0.0018581598997116089
2.071 0.0005268007516860962 0.0018369406461715698
2.072 0.0005723685026168823 0.0018225833773612976
2.073 0.0006116852164268494 0.0018032342195510864
2.074 0.0006666108965873718 0.0017470568418502808
2.075 0.0006909593939781189 0.001735195517539978
2.076 0.0007365196943283081 0.0016983747482299805
2.077 0.0007727295160293579 0.0016709044575691223
2.078 0.0008008107542991638 0.0016203522682189941
2.079 0.0008451268076896667 0.0016147345304489136
2.08 0.0008713454008102417 0.0015785321593284607
2.081 0.0009038001298904419 0.001532338559627533
2.082 0.0009412467479705811 0.0015104934573173523
2.083 0.0009712055325508118 0.001464933156967163
2.084 0.0010255128145217896 0.001440584659576416
2.085 0.001049235463142395 0.001406259834766388
2.086 0.0010791942477226257 0.001366935670375824
2.087 0.0011291280388832092 0.0013494566082954407
2.088 0.0011465996503829956 0.001299530267715454
2.089 0.0011890456080436707 0.0012695640325546265
2.09 0.0011878013610839844 0.0012221261858940125
2.091 0.001217760145664215 0.00116720050573349
2.092 0.0012595802545547485 0.0011528432369232178
2.093 0.0012708157300949097 0.0010997951030731201
2.094 0.0013120099902153015 0.0010517314076423645
2.095 0.0013282373547554016 0.0010124072432518005
2.096 0.0013382285833358765 0.0009811967611312866
2.097 0.001361943781375885 0.0009418725967407227
2.098 0.001393154263496399 0.0008869469165802002
2.099 0.001401267945766449 0.0008519962430000305
2.1 0.0013725534081459045 0.0008257776498794556
2.101 0.0014281049370765686 0.0007614865899085999
2.102 0.0014474540948867798 0.000715300440788269
2.103 0.0014742910861968994 0.0006572529673576355
2.104 0.001496143639087677 0.0006422698497772217
2.105 0.0014836564660072327 0.000581100583076477
2.106 0.0014905184507369995 0.0005342885851860046
2.107 0.0015161111950874329 0.00048185884952545166
2.108 0.0015148669481277466 0.0004269331693649292
2.109 0.0015285983681678772 0.00038511306047439575
2.11 0.0015329644083976746 0.00033080577850341797
2.111 0.001535467803478241 0.00030209869146347046
2.112 0.001545451581478119 0.00025466084480285645
2.113 0.0015373378992080688 0.00020348280668258667
2.114 0.0015441998839378357 0.00016103684902191162
2.115 0.00154045969247818 0.00010485947132110596
2.116 0.0015473216772079468 6.116926670074463e-05
2.117 0.0015448257327079773 2.9958784580230713e-05
2.118 0.0015342161059379578 -2.9966235160827637e-05
2.119 0.0015479475259780884 -7.552653551101685e-05
2.12 0.0015167370438575745 -0.0001329556107521057
2.121 0.0015154927968978882 -0.00017164647579193115
2.122 0.0015086233615875244 -0.000215969979763031
2.123 0.0015186145901679993 -0.00025716423988342285
2.124 0.001501135528087616 -0.00030335038900375366
2.125 0.0014911442995071411 -0.00033768266439437866
2.126 0.0014855265617370605 -0.0003794953227043152
2.127 0.001469925045967102 -0.00043942034244537354
2.128 0.0014593154191970825 -0.0004618912935256958
2.129 0.0014380961656570435 -0.0005193129181861877
2.13 0.0014249831438064575 -0.0005586370825767517
2.1310000000000002 0.0014199912548065186 -0.000589221715927124
2.132 0.0014006420969963074 -0.000654757022857666
2.133 0.0013794228434562683 -0.0006872192025184631
2.134 0.0013519525527954102 -0.0007371529936790466
2.135 0.0013294890522956848 -0.00077085942029953
2.136 0.0013182535767555237 -0.0008170455694198608
2.137 0.0013007745146751404 -0.0008563622832298279
2.138 0.0012733116745948792 -0.0008832067251205444
2.1390000000000002 0.0012601986527442932 -0.0009125396609306335
2.14 0.0012583285570144653 -0.0009556114673614502
2.141 0.0012171342968940735 -0.0009743347764015198
2.142 0.0011940374970436096 -0.0010130330920219421
2.143 0.0011659562587738037 -0.001054227352142334
2.144 0.0011416077613830566 -0.0010873079299926758
2.145 0.0011366158723831177 -0.0011129006743431091
2.146 0.001098543405532837 -0.0011378675699234009
2.147 0.001070454716682434 -0.001175321638584137
2.148 0.001044243574142456 -0.0012071505188941956
2.149 0.001028008759021759 -0.0012371093034744263
2.15 0.0009943097829818726 -0.001275189220905304
2.151 0.0009705871343612671 -0.0012989044189453125
2.152 0.0009368807077407837 -0.0013138875365257263
2.153 0.0009075477719306946 -0.0013432204723358154
2.154 0.000872589647769928 -0.0013825446367263794
2.155 0.0008688420057296753 -0.0013856664299964905
2.156 0.000820159912109375 -0.0014162510633468628
2.157 0.0007883310317993164 -0.0014181211590766907
2.158 0.0007733479142189026 -0.0014493316411972046
2.159 0.000746510922908783 -0.0014586970210075378
2.16 0.0007159262895584106 -0.0014936476945877075
2.161 0.0006840899586677551 -0.0015129968523979187
2.162 0.0006528794765472412 -0.0015298500657081604
2.163 0.0006229206919670105 -0.0015554428100585938
2.164 0.0006091892719268799 -0.0015610605478286743
2.165 0.0005686208605766296 -0.0015660524368286133
2.166 0.0005299225449562073 -0.001592889428138733
2.167 0.0005193129181861877 -0.0016034990549087524
2.168 0.00046812742948532104 -0.0016278475522994995
2.169 0.0004394128918647766 -0.0016359612345695496
2.17 0.0004107058048248291 -0.0016428232192993164
2.171 0.00038136541843414307 -0.0016496852040290833
2.172 0.0003576502203941345 -0.0016671642661094666
2.173 0.0003295615315437317 -0.001656554639339447
2.174 0.0003064647316932678 -0.0016821473836898804
2.175 0.0002777576446533203 -0.0016752853989601135
2.176 0.0002496689558029175 -0.0016902610659599304
2.177 0.00021658092737197876 -0.0017033740878105164
2.178 0.00018974393606185913 -0.0016996264457702637
2.179 0.00017351657152175903 -0.001708991825580597
2.18 0.00015603750944137573 -0.0016946345567703247
2.181 0.00011984258890151978 -0.0017127320170402527
2.182 8.613616228103638e-05 -0.0016996264457702637
2.183 7.8640878200531e-05 -0.0016902610659599304
2.184 5.8673322200775146e-05 -0.0017071142792701721
2.185 3.4324824810028076e-05 -0.0017002448439598083
2.186 1.2479722499847412e-05 -0.0017027482390403748
2.187 -2.372264862060547e-05 -0.0016946271061897278
2.188 -3.869831562042236e-05 -0.0016952529549598694
2.189 -5.555152893066406e-05 -0.0017052441835403442
2.19 -6.866455078125e-05 -0.00170087069272995
2.191 -9.487569332122803e-05 -0.0016890168190002441
2.192 -0.00012546032667160034 -0.001682773232460022
2.193 -0.00013544410467147827 -0.0016621723771095276
2.194 -0.00015728920698165894 -0.0016771554946899414
2.195 -0.00015728920698165894 -0.0016671642661094666
2.196 -0.00016977638006210327 -0.0016521885991096497
2.197 -0.0001835078001022339 -0.0016428232192993164
2.198 -0.00020410865545272827 -0.0016415789723396301
2.199 -0.00022096186876296997 -0.0016290917992591858
2.2 -0.00023968517780303955 -0.0016528144478797913
2.201 -0.0002496689558029175 -0.0016035065054893494
2.202 -0.00026979297399520874 -0.0016574636101722717
2.203 -0.0002810284495353699 -0.001613117754459381
2.204 -0.00028852373361587524 -0.0016081258654594421
2.205 -0.00029165297746658325 -0.0015850141644477844
2.206 -0.0003203749656677246 -0.0015756487846374512
2.207 -0.0003234967589378357 -0.0016025006771087646
2.208 -0.0003260001540184021 -0.0015637800097465515
2.209 -0.0003447309136390686 -0.0015556663274765015
2.21 -0.00033161789178848267 -0.0015462934970855713
2.211 -0.0003466084599494934 -0.0015406757593154907
2.212 -0.00036284327507019043 -0.0015231892466545105
2.213 -0.0003690868616104126 -0.0015313103795051575
2.214 -0.0003678351640701294 -0.001501329243183136
2.215 -0.00035846978425979614 -0.001522563397884369
2.216 -0.0003703385591506958 -0.0014801025390625
2.217 -0.000395946204662323 -0.0014726072549819946
2.218 -0.0003734603524208069 -0.0014513731002807617
2.219 -0.0003790855407714844 -0.0014538690447807312
2.22 -0.0003672167658805847 -0.0014576166868209839
2.221 -0.0003896951675415039 -0.0014407560229301453
2.222 -0.000371590256690979 -0.0014301389455795288
2.223 -0.0003659650683403015 -0.0014076530933380127
2.224 -0.0003740862011909485 -0.0013976618647575378
2.225 -0.0003684684634208679 -0.0013839229941368103
2.226 -0.00035597383975982666 -0.0013951659202575684
2.227 -0.00036534667015075684 -0.0013814270496368408
2.228 -0.000371590256690979 -0.0013720616698265076
2.229 -0.00035722553730010986 -0.00136643648147583
2.23 -0.0003503561019897461 -0.0013439580798149109
2.231 -0.0003609657287597656 -0.001360192894935608
2.232 -0.00036346912384033203 -0.0013508200645446777
2.233 -0.0003497302532196045 -0.0013339594006538391
2.234 -0.00034036487340927124 -0.001338958740234375
2.235 -0.00033411383628845215 -0.0013352110981941223
2.236 -0.0003266185522079468 -0.0013314634561538696
2.237 -0.00033599138259887695 -0.001309610903263092
2.238 -0.0003216266632080078 -0.0012989863753318787
2.239 -0.0002991408109664917 -0.0013083592057228088
2.24 -0.0002835318446159363 -0.001298360526561737
2.241 -0.000303514301776886 -0.0012946203351020813
2.242 -0.000279158353805542 -0.0012877508997917175
2.243 -0.00029477477073669434 -0.0012896209955215454
2.244 -0.000279158353805542 -0.0012927427887916565
2.245 -0.00028977543115615845 -0.0012852475047111511
2.246 -0.0002754107117652893 -0.001293368637561798
2.247 -0.0002760365605354309 -0.0012939944863319397
2.248 -0.0002573058009147644 -0.0012946203351020813
2.249 -0.00024543702602386475 -0.0012958645820617676
2.25 -0.00026229768991470337 -0.0013139769434928894
2.251 -0.00023669004440307617 -0.0012927427887916565
2.252 -0.00024168938398361206 -0.0012914910912513733
2.253 -0.0002335682511329651 -0.0013083592057228088
2.254 -0.00022357702255249023 -0.0013021156191825867
2.255 -0.00022795051336288452 -0.001306481659412384
2.256 -0.00020234286785125732 -0.001327715814113617
2.257 -0.00022420287132263184 -0.00131148099899292
2.258 -0.00022357702255249023 -0.0013220980763435364
2.259 -0.00020422041416168213 -0.001319602131843567
2.26 -0.00020609050989151 -0.0013414546847343445
2.261 -0.0002048388123512268 -0.001343950629234314
2.262 -0.00017298758029937744 -0.0013452023267745972
2.263 -0.00018173456192016602 -0.0013683140277862549
2.264 -0.00018236041069030762 -0.0013708099722862244
2.265 -0.0001617521047592163 -0.001360192894935608
2.266 -0.0001611262559890747 -0.0013701841235160828
2.267 -0.0001617521047592163 -0.0013889223337173462
2.268 -0.00015737861394882202 -0.0013776794075965881
2.269 -0.0001623779535293579 -0.0013932958245277405
2.27 -0.0001592487096786499 -0.0014020353555679321
2.271 -0.00015425682067871094 -0.001425139605998993
2.2720000000000007 -0.00014863908290863037 -0.0014626085758209229
2.273 -0.00014613568782806396 -0.0014538690447807312
2.274 -0.0001386404037475586 -0.0014582425355911255
2.275 -0.0001398921012878418 -0.0014663562178611755
2.276 -0.0001405179500579834 -0.0014788508415222168
2.277 -0.00013739615678787231 -0.0014782249927520752
2.278 -0.00014363974332809448 -0.001514442265033722
2.279 -0.0001348927617073059 -0.001522563397884369
2.2800000000000007 -0.00012802332639694214 -0.0015525445342063904
2.281 -0.00014426559209823608 -0.0015456676483154297
2.282 -0.00015425682067871094 -0.0015675276517868042
2.283 -0.00013739615678787231 -0.0015806406736373901
2.284 -0.00014489144086837769 -0.0015712752938270569
2.285 -0.00014238804578781128 -0.0015943869948387146
2.286 -0.00014925748109817505 -0.0016306042671203613
2.287 -0.00014925748109817505 -0.0016405954957008362
2.2880000000000003 -0.00016986578702926636 -0.0016474723815917969
2.289 -0.0001423954963684082 -0.0016605854034423828
2.29 -0.000165499746799469 -0.001679942011833191
2.291 -0.00016736984252929688 -0.001691184937953949
2.292 -0.00017111748456954956 -0.001715540885925293
2.293 -0.0001873597502708435 -0.0017423927783966064
2.294 -0.00019984692335128784 -0.0017423927783966064
2.295 -0.00019984692335128784 -0.0017586275935173035
2.296 -0.00020609050989151 -0.0018248260021209717
2.297 -0.0002110898494720459 -0.0018023476004600525
2.298 -0.00021920353174209595 -0.0018254518508911133
2.299 -0.00024418532848358154 -0.0018460601568222046
2.3 -0.00024981051683425903 -0.0018985271453857422
2.301 -0.0002797842025756836 -0.0018766596913337708
2.302 -0.00028602778911590576 -0.0019422397017478943
2.303 -0.00029227137565612793 -0.0019285008311271667
2.304 -0.00031038373708724976 -0.0019285008311271667
2.305 -0.0003216266632080078 -0.0019516050815582275
2.306 -0.0003291219472885132 -0.0019522309303283691
2.307 -0.0003497302532196045 -0.0019840821623802185
2.308 -0.0003703385591506958 -0.002009063959121704
2.309 -0.0003665909171104431 -0.0020196810364723206
2.31 -0.00040218979120254517 -0.0020846277475357056
2.311 -0.0004128068685531616 -0.002045281231403351
2.312 -0.00043341517448425293 -0.0020715147256851196
2.313 -0.00045152753591537476 -0.002077758312225342
2.314 -0.0004665106534957886 -0.0020765066146850586
2.315 -0.0004889965057373047 -0.002111479640007019
2.316 -0.0005046054720878601 -0.0021220967173576355
2.317 -0.0005264654755592346 -0.002145826816558838
2.318 -0.0005533173680305481 -0.002207651734352112
2.319 -0.0005595609545707703 -0.002170182764530182
2.32 -0.0006014108657836914 -0.002184547483921051
2.321 -0.0006257668137550354 -0.0021901726722717285
2.322 -0.0006420016288757324 -0.0022245198488235474
2.323 -0.0006763488054275513 -0.00221078097820282
2.324 -0.0007019564509391785 -0.0022438764572143555
2.325 -0.0007313042879104614 -0.0022532418370246887
2.326 -0.0007475465536117554 -0.0022782236337661743
2.327 -0.0007669031620025635 -0.002278849482536316
2.328 -0.0007981285452842712 -0.0022794753313064575
2.329 -0.0008181184530258179 -0.002288222312927246
2.33 -0.0008505880832672119 -0.002293214201927185
2.331 -0.000878065824508667 -0.0023250654339790344
2.332 -0.0008980482816696167 -0.002311326563358307
2.333 -0.000934898853302002 -0.002345047891139984
2.334 -0.0009742453694343567 -0.0023431777954101562
2.335 -0.0009904801845550537 -0.0023575425148010254
2.336 -0.0010123401880264282 -0.0023587867617607117
2.337 -0.0010423138737678528 -0.002356290817260742
2.338 -0.0010766610503196716 -0.0023619085550308228
2.339 -0.001116633415222168 -0.002361290156841278
2.34 -0.001140989363193512 -0.0023912638425827026
2.341 -0.0011809542775154114 -0.0023818910121917725
2.342 -0.0012115538120269775 -0.0023831427097320557
2.343 -0.0012459084391593933 -0.0023831427097320557
2.344 -0.0012727603316307068 -0.0023912638425827026
2.345 -0.0013083592057228088 -0.002393759787082672
2.346 -0.001347079873085022 -0.002393759787082672
2.347 -0.0013976618647575378 -0.002395637333393097
2.348 -0.0014164000749588013 -0.0024056285619735718
2.349 -0.0014420002698898315 -0.0024025067687034607
2.35 -0.00148821622133255 -0.002438098192214966
2.351 -0.00151757150888443 -0.0023962557315826416
2.352 -0.001561284065246582 -0.002397507429122925
2.3529999999999993 -0.001587510108947754 -0.002376273274421692
2.354 -0.001618117094039917 -0.002452470362186432
2.355 -0.0016593337059020996 -0.002366282045841217
2.356 -0.0016905590891838074 -0.0023525431752204895
2.357 -0.0017130374908447266 -0.002338804304599762
2.358 -0.001739896833896637 -0.0023313090205192566
2.359 -0.00177861750125885 -0.0023331865668296814
2.36 -0.0018092170357704163 -0.002311326563358307
2.361 -0.001832328736782074 -0.0022938400506973267
2.362 -0.001867920160293579 -0.002338804304599762
2.363 -0.0019060149788856506 -0.0022682324051856995
2.364 -0.0019285008311271667 -0.0022507458925247192
2.365 -0.00196722149848938 -0.0022338852286338806
2.366 -0.002010934054851532 -0.0022095292806625366
2.367 -0.0020346641540527344 -0.0021901726722717285
2.368 -0.0020640194416046143 -0.002186425030231476
2.369 -0.0020908713340759277 -0.0022126510739326477
2.37 -0.002118349075317383 -0.002125844359397888
2.371 -0.00212647020816803 -0.002090245485305786
2.372 -0.0021689385175704956 -0.002079010009765625
2.373 -0.0021851733326911926 -0.0021027401089668274
2.374 -0.002212032675743103 -0.002012811601161957
2.375 -0.0022420063614845276 -0.0020034387707710266
2.376 -0.002275727689266205 -0.0019578486680984497
2.377 -0.0022844746708869934 -0.0019516050815582275
2.378 -0.002324439585208893 -0.0019122585654258728
2.379 -0.0023313090205192566 -0.001884162425994873
2.38 -0.0023475512862205505 -0.0018635541200637817
2.381 -0.002380646765232086 -0.0018154606223106384
2.382 -0.0023800209164619446 -0.0017667487263679504
2.383 -0.0023881420493125916 -0.0017355233430862427
2.384 -0.0024156197905540466 -0.0017049238085746765
2.385 -0.00241687148809433 -0.0017049238085746765
2.386 -0.0024337321519851685 -0.001613117754459381
2.387 -0.002473078668117523 -0.0016000047326087952
2.388 -0.002457462251186371 -0.0015719011425971985
