!Created with skrf (http://scikit-rf.org).
# GHz S RI R 50.0 
!freq ReS11 ImS11
2.0 -0.0012860968708992004 -0.0016430392861366272
2.001 -0.0013154298067092896 -0.0015631616115570068
2.002 -0.0013254135847091675 -0.0014857873320579529
2.003 -0.0013403892517089844 -0.0014190152287483215
2.004 -0.0013466328382492065 -0.0013322755694389343
2.005 -0.0013559907674789429 -0.0012792348861694336
2.006 -0.0013503730297088623 -0.0012068524956703186
2.007 -0.0013447552919387817 -0.001143820583820343
2.008 -0.0013291612267494202 -0.0010708123445510864
2.009 -0.0012942105531692505 -0.0009978041052818298
2.01 -0.0012910887598991394 -0.0009379014372825623
2.011 -0.001255519688129425 -0.0008754953742027283
2.012 -0.001219332218170166 -0.0008031129837036133
2.013 -0.00119125097990036 -0.0007569342851638794
2.014 -0.0011350885033607483 -0.000695154070854187
2.015 -0.0010851696133613586 -0.0006371214985847473
2.016 -0.0010377392172813416 -0.0005872026085853577
2.017 -0.0009940564632415771 -0.000560373067855835
2.018 -0.0009260401129722595 -0.0005042031407356262
2.019 -0.0008723735809326172 -0.0004817396402359009
2.02 -0.0007962435483932495 -0.0004199668765068054
2.021 -0.000749446451663971 -0.000420592725276947
2.022 -0.0006726905703544617 -0.0003956258296966553
2.023 -0.0006196498870849609 -0.0004037395119667053
2.024 -0.0005616173148155212 -0.0003619268536567688
2.025 -0.0004923492670059204 -0.00035631656646728516
2.026 -0.0004237070679664612 -0.0003594309091567993
2.027 -0.0003663003444671631 -0.00038377195596694946
2.028 -0.0003176257014274597 -0.0003906339406967163
2.029 -0.00025460124015808105 -0.0004224628210067749
2.03 -0.0001872032880783081 -0.0004368126392364502
2.031 -0.00015226006507873535 -0.0004499182105064392
2.032 -0.00010483711957931519 -0.00048486143350601196
2.033 -6.489455699920654e-05 -0.0005166903138160706
2.034 -1.934915781021118e-05 -0.0005516335368156433
2.035 1.8715858459472656e-05 -0.0005928203463554382
2.036 5.428493022918701e-05 -0.0006321296095848083
2.037 7.862597703933716e-05 -0.0006670728325843811
2.038 0.00010545551776885986 -0.0007388368248939514
2.039 0.00011918693780899048 -0.0007862597703933716
2.04 0.00015787780284881592 -0.0008268207311630249
2.041 0.0001603737473487854 -0.0008598938584327698
2.042 0.000170975923538208 -0.0009254142642021179
2.043 0.00018470734357833862 -0.0009809508919715881
2.044 0.00018034130334854126 -0.0010471045970916748
2.045 0.00017784535884857178 -0.0010857880115509033
2.046 0.0001753494143486023 -0.001145690679550171
2.047 0.00018221139907836914 -0.0012006089091300964
2.048 0.00016348809003829956 -0.0012530237436294556
2.049 0.00015475600957870483 -0.0013041943311691284
2.05 0.00012979656457901 -0.0013765841722488403
2.051 0.00010795146226882935 -0.0014090314507484436
2.052 7.425248622894287e-05 -0.0014639422297477722
2.053 6.364285945892334e-05 -0.001510120928287506
2.054 3.618746995925903e-05 -0.0015600398182868958
2.055 0.0 -0.0016024783253669739
2.056 -3.7439167499542236e-05 -0.0016617551445960999
2.057 -5.86584210395813e-05 -0.0016898363828659058
2.058 -9.797513484954834e-05 -0.0017360150814056396
2.059 -0.00014913827180862427 -0.001774705946445465
2.06 -0.00017160922288894653 -0.0018021613359451294
2.061 -0.00022713840007781982 -0.0018383562564849854
2.062 -0.00025210529565811157 -0.001875169575214386
2.063 -0.00030077993869781494 -0.0018988847732543945
2.064 -0.0003513246774673462 -0.0019250959157943726
2.065 -0.0003925114870071411 -0.001958787441253662
2.066 -0.0004480406641960144 -0.0019806325435638428
2.067 -0.00048611313104629517 -0.0020043402910232544
2.068 -0.0005516335368156433 -0.0020255595445632935
2.069 -0.0005921944975852966 -0.002028055489063263
2.07 -0.0006496012210845947 -0.0020386651158332825
2.071 -0.0006833001971244812 -0.002041161060333252
2.072 -0.0007488206028938293 -0.002057380974292755
2.073 -0.0007744058966636658 -0.0020580068230628967
2.074 -0.000829942524433136 -0.002060502767562866
2.075 -0.0008917227387428284 -0.002047397196292877
2.076 -0.0009441375732421875 -0.0020374134182929993
2.077 -0.0009953081607818604 -0.0020399093627929688
2.078 -0.0010439828038215637 -0.002006217837333679
2.079 -0.0010857880115509033 -0.002021186053752899
2.08 -0.0011350885033607483 -0.0019943565130233765
2.081 -0.0011793896555900574 -0.001978754997253418
2.082 -0.0012274384498596191 -0.00195254385471344
2.083 -0.001281730830669403 -0.0019356980919837952
2.084 -0.0013110563158988953 -0.001906372606754303
2.085 -0.0013553649187088013 -0.0018714293837547302
2.086 -0.0014196410775184631 -0.0018458440899848938
2.087 -0.0014389827847480774 -0.0018196329474449158
2.088 -0.0014820396900177002 -0.0017709583044052124
2.089 -0.0015144869685173035 -0.0017335191369056702
2.09 -0.001546315848827362 -0.0016998201608657837
2.091 -0.0015937387943267822 -0.0016492754220962524
2.092 -0.0016118362545967102 -0.0016199499368667603
2.093 -0.0016411691904067993 -0.00155629962682724
2.094 -0.0016492754220962524 -0.0015107467770576477
2.095 -0.0016817227005958557 -0.0014633238315582275
2.096 -0.0016948282718658447 -0.001408405601978302
2.097 -0.0017191693186759949 -0.0013697147369384766
2.098 -0.0017266571521759033 -0.0012935847043991089
2.099 -0.0017285272479057312 -0.0012536495923995972
2.1 -0.0017210394144058228 -0.0012205764651298523
2.101 -0.0017378851771354675 -0.0011263489723205566
2.102 -0.0017316490411758423 -0.0010770559310913086
2.103 -0.0017085596919059753 -0.0010246410965919495
2.104 -0.0016954541206359863 -0.0009622350335121155
2.105 -0.001681104302406311 -0.0009017065167427063
2.106 -0.0016636326909065247 -0.0008436739444732666
2.107 -0.001644909381866455 -0.0007775276899337769
2.108 -0.001610584557056427 -0.0007163733243942261
2.109 -0.0015912428498268127 -0.0006814301013946533
2.11 -0.0015357062220573425 -0.0006165280938148499
2.111 -0.0015063732862472534 -0.0005753412842750549
2.112 -0.0014570802450180054 -0.0005154386162757874
2.113 -0.0014146491885185242 -0.00045927613973617554
2.114 -0.0013703405857086182 -0.0004374384880065918
2.115 -0.0013041943311691284 -0.0003918856382369995
2.116 -0.0012536495923995972 -0.0003619343042373657
2.117 -0.0011906251311302185 -0.0003219917416572571
2.118 -0.0011244788765907288 -0.0002870485186576843
2.119 -0.0010651946067810059 -0.0002932921051979065
2.12 -0.0010102838277816772 -0.0002751946449279785
2.121 -0.0009279102087020874 -0.0002589672803878784
2.122 -0.0008711293339729309 -0.00025210529565811157
2.123 -0.0008099749684333801 -0.0002608448266983032
2.124 -0.000749446451663971 -0.0002751946449279785
2.125 -0.0006932839751243591 -0.00028392672538757324
2.126 -0.0006258934736251831 -0.000303901731967926
2.127 -0.0005722269415855408 -0.0003226175904273987
2.128 -0.000516064465045929 -0.0003513246774673462
2.129 -0.00048798322677612305 -0.0003906339406967163
2.13 -0.00044304877519607544 -0.0004380643367767334
2.1310000000000002 -0.0004093572497367859 -0.0004636496305465698
2.132 -0.0003669261932373047 -0.0005310401320457458
2.133 -0.00034134089946746826 -0.0005803406238555908
2.134 -0.0003120154142379761 -0.0006127879023551941
2.135 -0.00031388550996780396 -0.0006708204746246338
2.136 -0.00030015408992767334 -0.0007338449358940125
2.137 -0.0002932921051979065 -0.0007793977856636047
2.138 -0.00028205662965774536 -0.0008293166756629944
2.1390000000000002 -0.00028767436742782593 -0.0008754953742027283
2.14 -0.0002889186143875122 -0.0009503811597824097
2.141 -0.00033135712146759033 -0.0009934380650520325
2.142 -0.0003350973129272461 -0.0010290071368217468
2.143 -0.00037004053592681885 -0.001084543764591217
2.144 -0.0003825277090072632 -0.0011413246393203735
2.145 -0.00043057650327682495 -0.0011843889951705933
2.146 -0.000461772084236145 -0.001224324107170105
2.147 -0.0005141869187355042 -0.0012742429971694946
2.148 -0.0005397722125053406 -0.001301698386669159
2.149 -0.0005928203463554382 -0.0013422593474388123
2.15 -0.0006246417760848999 -0.0013653486967086792
2.151 -0.0006658285856246948 -0.001380324363708496
2.152 -0.0007076337933540344 -0.0014059096574783325
2.153 -0.000749446451663971 -0.0014227554202079773
2.154 -0.0008143410086631775 -0.0014240071177482605
2.155 -0.0008636415004730225 -0.0014483407139778137
2.156 -0.0009198039770126343 -0.001449592411518097
2.157 -0.0009447634220123291 -0.001449592411518097
2.158 -0.0009921863675117493 -0.0014302432537078857
2.159 -0.0010339990258216858 -0.0014321208000183105
2.16 -0.0010901540517807007 -0.0014333650469779968
2.161 -0.0011251047253608704 -0.001423381268978119
2.162 -0.0011581778526306152 -0.0014071539044380188
2.163 -0.001209348440170288 -0.001385316252708435
2.164 -0.001234307885169983 -0.0013715922832489014
2.165 -0.0012767389416694641 -0.0013428851962089539
2.166 -0.0013091862201690674 -0.001322917640209198
2.167 -0.001339145004749298 -0.0012860968708992004
2.168 -0.0013572350144386292 -0.001265503466129303
2.169 -0.0013878121972084045 -0.0012480318546295166
2.17 -0.0014240071177482605 -0.001193121075630188
2.171 -0.0014508366584777832 -0.0011837631464004517
2.172 -0.0014595761895179749 -0.0011169910430908203
2.173 -0.0014795437455177307 -0.0010932758450508118
2.174 -0.0014857873320579529 -0.001050218939781189
2.175 -0.0015176087617874146 -0.001012161374092102
2.176 -0.0015263408422470093 -0.000985942780971527
2.177 -0.001535080373287201 -0.0009135603904724121
2.178 -0.0015188604593276978 -0.0008836090564727783
2.179 -0.0015213564038276672 -0.0008224546909332275
2.18 -0.0015344545245170593 -0.0007868856191635132
2.181 -0.0015425682067871094 -0.0007481947541236877
2.182 -0.001530088484287262 -0.0007057636976242065
2.183 -0.001511991024017334 -0.0006545931100845337
2.184 -0.0015132427215576172 -0.0006021782755851746
2.185 -0.0014932751655578613 -0.0005453974008560181
2.186 -0.0014776736497879028 -0.000516064465045929
2.187 -0.0014651939272880554 -0.0004474222660064697
2.188 -0.0014601945877075195 -0.00041372328996658325
2.189 -0.0014302507042884827 -0.00037441402673721313
2.19 -0.0014102756977081299 -0.00034695863723754883
2.191 -0.0013796985149383545 -0.00028392672538757324
2.192 -0.0013403892517089844 -0.0002633333206176758
2.193 -0.001339145004749298 -0.00022652000188827515
2.194 -0.0013060718774795532 -0.00018907338380813599
2.195 -0.001265503466129303 -0.0001304224133491516
2.196 -0.0012261942028999329 -9.859353303909302e-05
2.197 -0.0011868849396705627 -6.240606307983398e-05
2.198 -0.0011375844478607178 -2.4341046810150146e-05
2.199 -0.0011144950985908508 4.991888999938965e-06
2.2 -0.0010670721530914307 9.609758853912354e-05
2.201 -0.0010159015655517578 7.300823926925659e-05
2.202 -0.0009676069021224976 0.0001494884490966797
2.203 -0.0009119436144828796 0.00013009458780288696
2.204 -0.0008706599473953247 0.00013885647058486938
2.205 -0.000830627977848053 0.0001657530665397644
2.206 -0.0007805898785591125 0.00016762316226959229
2.207 -0.000724300742149353 0.0001845136284828186
2.208 -0.0006717592477798462 0.00021203607320785522
2.209 -0.0006173402070999146 0.0002039000391960144
2.21 -0.0005666837096214294 0.0002145320177078247
2.211 -0.0005047619342803955 0.0002170354127883911
2.212 -0.0004684850573539734 0.00022329390048980713
2.213 -0.00042031705379486084 0.00021579116582870483
2.214 -0.0003671571612358093 0.0002001449465751648
2.215 -0.000305861234664917 0.00018952041864395142
2.216 -0.00025644898414611816 0.00020015239715576172
2.217 -0.00021579116582870483 0.0001720041036605835
2.218 -0.00014635920524597168 0.00014698505401611328
2.219 -0.00011508911848068237 9.757280349731445e-05
2.22 -5.879998207092285e-05 9.131431579589844e-05
2.221 3.7476420402526855e-06 5.879253149032593e-05
2.222 2.1263957023620605e-05 3.252178430557251e-05
2.223 6.879866123199463e-05 -1.5638768672943115e-05
2.224 0.00011634081602096558 -3.378093242645264e-05
2.225 0.00013823062181472778 -8.819252252578735e-05
2.226 0.0001613721251487732 -0.00014761090278625488
2.227 0.0001907646656036377 -0.0001863911747932434
2.228 0.0002039000391960144 -0.00025144219398498535
2.229 0.00020390748977661133 -0.000302731990814209
2.23 0.00022079050540924072 -0.0003721565008163452
2.231 0.00022204220294952393 -0.00043595582246780396
2.232 0.00023267418146133423 -0.0005047619342803955
2.233 0.00022704154253005981 -0.0005272775888442993
2.234 0.0001963973045349121 -0.000608585774898529
2.235 0.00019077211618423462 -0.0006579980254173279
2.236 0.0001619979739189148 -0.0007261708378791809
2.237 0.00013760477304458618 -0.0007649585604667664
2.238 9.694695472717285e-05 -0.0008300021290779114
2.239 7.255375385284424e-05 -0.0008556470274925232
2.24 4.003196954727173e-05 -0.0009138137102127075
2.241 -1.1883676052093506e-05 -0.0009550973773002625
2.242 -6.129592657089233e-05 -0.0010101422667503357
2.243 -0.00010383129119873047 -0.0010245218873023987
2.244 -0.000166378915309906 -0.0010432898998260498
2.245 -0.00021892040967941284 -0.0010901987552642822
2.246 -0.00025394558906555176 -0.0010939538478851318
2.247 -0.0003127381205558777 -0.0011102184653282166
2.248 -0.0003621503710746765 -0.001109592616558075
2.249 -0.00039717555046081543 -0.0011020824313163757
2.25 -0.00045471638441085815 -0.0010995864868164062
2.251 -0.0005279034376144409 -0.0010833218693733215
2.252 -0.0005585476756095886 -0.001079566776752472
2.253 -0.0006042048335075378 -0.0010670572519302368
2.254 -0.0006204694509506226 -0.001020774245262146
2.255 -0.0006586238741874695 -0.0009976327419281006
2.256 -0.0007092878222465515 -0.0009744912385940552
2.257 -0.0007299259305000305 -0.0009419694542884827
2.258 -0.0007530674338340759 -0.0009263306856155396
2.259 -0.0007674545049667358 -0.0008662790060043335
2.26 -0.000783093273639679 -0.0008387565612792969
2.261 -0.0007918477058410645 -0.0008118674159049988
2.262 -0.0007993578910827637 -0.0007524490356445312
2.263 -0.0008081123232841492 -0.0007280558347702026
2.264 -0.0008062347769737244 -0.0006855204701423645
2.265 -0.0008043646812438965 -0.0006448626518249512
2.266 -0.0007918477058410645 -0.0005941987037658691
2.267 -0.0007943511009216309 -0.0005491673946380615
2.268 -0.000786222517490387 -0.0005335286259651184
2.269 -0.0007780939340591431 -0.0004934966564178467
2.27 -0.0007574483752250671 -0.00047035515308380127
2.271 -0.0007361844182014465 -0.00043220818042755127
2.2720000000000007 -0.000721171498298645 -0.00038716942071914673
2.273 -0.0006886497139930725 -0.0003465116024017334
2.274 -0.0006698817014694214 -0.0003208667039871216
2.275 -0.0006342306733131409 -0.0003133639693260193
2.276 -0.0006135925650596619 -0.00027270615100860596
2.277 -0.0005760639905929565 -0.00025206804275512695
2.278 -0.0005566701292991638 -0.00021328777074813843
2.279 -0.0005116388201713562 -0.00020265579223632812
2.2800000000000007 -0.0004903748631477356 -0.0001820102334022522
2.281 -0.00043532997369766235 -0.000142611563205719
2.282 -0.00041469186544418335 -0.0001313537359237671
2.283 -0.0003834143280982971 -0.00012634694576263428
2.284 -0.0003602728247642517 -0.00011571496725082397
2.285 -0.0002921000123023987 -9.570270776748657e-05
2.286 -0.00027082860469818115 -7.818639278411865e-05
2.287 -0.00023330003023147583 -7.756054401397705e-05
2.2880000000000003 -0.00020765513181686401 -6.692856550216675e-05
2.289 -0.0001851394772529602 -6.818026304244995e-05
2.29 -0.0001351088285446167 -6.129592657089233e-05
2.291 -0.00010007619857788086 -6.942451000213623e-05
2.292 -7.255375385284424e-05 -7.317960262298584e-05
2.293 -4.6290457248687744e-05 -7.005780935287476e-05
2.294 -2.5033950805664062e-06 -7.881224155426025e-05
2.295 2.6889145374298096e-05 -8.568912744522095e-05
2.296 5.7540833950042725e-05 -0.00010132789611816406
2.297 7.380545139312744e-05 -9.820610284805298e-05
2.298 0.00012759119272232056 -0.00012071430683135986
2.299 0.0001594945788383484 -0.00012759864330291748
2.3 0.0001857653260231018 -0.00011070817708969116
2.301 0.0002126544713973999 -0.0001626238226890564
2.302 0.00022016465663909912 -0.00018014013767242432
2.303 0.00026207417249679565 -0.00021766871213912964
2.304 0.00028709322214126587 -0.00022141635417938232
2.305 0.0003271251916885376 -0.00024456530809402466
2.306 0.0003321245312690735 -0.00026895850896835327
2.307 0.0003658980131149292 -0.00029709935188293457
2.308 0.00038779526948928833 -0.0003283768892288208
2.309 0.00040718168020248413 -0.0003640279173851013
2.31 0.00044908374547958374 -0.0003727823495864868
2.311 0.00046347081661224365 -0.00040593743324279785
2.312 0.00046597421169281006 -0.00042970478534698486
2.313 0.0004966259002685547 -0.0004759877920150757
2.314 0.0005035027861595154 -0.0005091354250907898
2.315 0.0005291476845741272 -0.0005554258823394775
2.316 0.0005422830581665039 -0.0005904436111450195
2.317 0.0005422830581665039 -0.0006179735064506531
2.318 0.0005541667342185974 -0.0006573721766471863
2.319 0.0005685538053512573 -0.0007030367851257324
2.32 0.0005885660648345947 -0.0007236748933792114
2.321 0.000581689178943634 -0.0007737129926681519
2.322 0.000581689178943634 -0.0008056089282035828
2.323 0.0005898177623748779 -0.0008625313639640808
2.324 0.0005716755986213684 -0.0009056851267814636
2.325 0.0005679279565811157 -0.0009563490748405457
2.326 0.0005591735243797302 -0.0009844973683357239
2.327 0.0005535408854484558 -0.0010326579213142395
2.328 0.0005510449409484863 -0.0010758116841316223
2.329 0.0005391538143157959 -0.0011195987462997437
2.33 0.0005228966474533081 -0.0011583790183067322
2.331 0.0005022510886192322 -0.0011959075927734375
2.332 0.00047785788774490356 -0.0012453198432922363
2.333 0.00044158101081848145 -0.001293480396270752
2.334 0.000391542911529541 -0.0013353824615478516
2.335 0.0003796592354774475 -0.001377291977405548
2.336 0.0003502592444419861 -0.0014317110180854797
2.337 0.00031398236751556396 -0.0014492273330688477
2.338 0.00027457624673843384 -0.0014980137348175049
2.339 0.00022454559803009033 -0.0015161484479904175
2.34 0.00017637759447097778 -0.001551799476146698
2.341 0.00012822449207305908 -0.001586824655532837
2.342 8.756667375564575e-05 -0.0016299858689308167
2.343 2.8774142265319824e-05 -0.0016306117177009583
2.344 -2.6270747184753418e-05 -0.0016512498259544373
2.345 -8.006393909454346e-05 -0.0016550049185752869
2.346 -0.00013447552919387817 -0.0016743913292884827
2.347 -0.00019515305757522583 -0.0016725212335586548
2.348 -0.00025144219398498535 -0.0016587525606155396
2.349 -0.0003039836883544922 -0.0016525015234947205
2.35 -0.0003377571702003479 -0.0016994103789329529
2.351 -0.00041469186544418335 -0.0016431212425231934
2.352 -0.00042845308780670166 -0.001596212387084961
2.3529999999999993 -0.0004872456192970276 -0.0015711933374404907
2.354 -0.0005285292863845825 -0.0015492960810661316
2.355 -0.000561051070690155 -0.0015130192041397095
2.356 -0.0005773156881332397 -0.001483626663684845
2.357 -0.000616714358329773 -0.0014254525303840637
2.358 -0.0006279796361923218 -0.001397930085659027
2.359 -0.0006448626518249512 -0.0013466402888298035
2.36 -0.0006548762321472168 -0.0012947320938110352
2.361 -0.0006567463278770447 -0.001258455216884613
2.362 -0.0006617531180381775 -0.0012209266424179077
2.363 -0.0006479918956756592 -0.0011909008026123047
2.364 -0.0006329789757728577 -0.0011227279901504517
2.365 -0.0006235986948013306 -0.0010851994156837463
2.366 -0.000605463981628418 -0.001038283109664917
2.367 -0.000578567385673523 -0.0009976327419281006
2.368 -0.0005447864532470703 -0.0009813681244850159
2.369 -0.0005228966474533081 -0.0009344592690467834
2.37 -0.0004922524094581604 -0.0009188205003738403
2.371 -0.000465981662273407 -0.0009000599384307861
2.372 -0.00042657554149627686 -0.0008731633424758911
2.373 -0.0003765374422073364 -0.0008437633514404297
2.374 -0.0003552660346031189 -0.0008281245827674866
2.375 -0.0003146156668663025 -0.0008149966597557068
2.376 -0.0003077313303947449 -0.0008031129837036133
2.377 -0.00025144219398498535 -0.0007874742150306702
2.378 -0.00020390748977661133 -0.0007974803447723389
2.379 -0.0001782625913619995 -0.0008024871349334717
2.38 -0.0001494884490966797 -0.0007949769496917725
2.381 -0.00012947618961334229 -0.0007974803447723389
2.382 -8.506327867507935e-05 -0.0008006095886230469
2.383 -5.6296586990356445e-05 -0.000809989869594574
