!Created with skrf (http://scikit-rf.org).
# GHz S RI R 50.0 
!freq ReS11 ImS11
2.0 -0.00033517926931381226 -0.0012258514761924744
2.001 -0.00033080577850341797 -0.0012071281671524048
2.002 -0.00033579766750335693 -0.0012202411890029907
2.003 -0.0003283098340034485 -0.001224607229232788
2.004 -0.0003420412540435791 -0.0012252330780029297
2.005 -0.00034952908754348755 -0.0012289732694625854
2.006 -0.00035452842712402344 -0.0012408345937728882
2.007 -0.0003464147448539734 -0.0012370869517326355
2.008 -0.0003582686185836792 -0.0012452006340026855
2.009 -0.0003632679581642151 -0.0012383386492729187
2.01 -0.00036388635635375977 -0.0012439563870429993
2.011 -0.00036887824535369873 -0.0012408345937728882
2.012 -0.00037948787212371826 -0.0012489482760429382
2.013 -0.00038635730743408203 -0.001260809600353241
2.014 -0.0003950968384742737 -0.0012757927179336548
2.015 -0.0003757476806640625 -0.0012645497918128967
2.016 -0.00040008872747421265 -0.0012782812118530273
2.017 -0.00040258467197418213 -0.0012795329093933105
2.018 -0.0004294291138648987 -0.0012795329093933105
2.019 -0.0004206821322441101 -0.0012857764959335327
2.02 -0.0004406571388244629 -0.0013069957494735718
2.021 -0.00044752657413482666 -0.0013044998049736023
2.022 -0.0004269257187843323 -0.0012932643294334412
2.023 -0.00044252723455429077 -0.0012938901782035828
2.024 -0.0004568919539451599 -0.0013157352805137634
2.025 -0.0004550144076347351 -0.0012907683849334717
2.026 -0.00046375393867492676 -0.0013144835829734802
2.027 -0.0004699975252151489 -0.0013107433915138245
2.028 -0.00047872960567474365 -0.0013282150030136108
2.029 -0.000486224889755249 -0.001331336796283722
2.03 -0.00048123300075531006 -0.0013219714164733887
2.031 -0.000499330461025238 -0.0013219788670539856
2.032 -0.0004943385720252991 -0.0013369545340538025
2.033 -0.0005018264055252075 -0.0013257190585136414
2.034 -0.0005074441432952881 -0.0013238489627838135
2.035 -0.0005236715078353882 -0.0013350844383239746
2.036 -0.0005324110388755798 -0.0013407021760940552
2.037 -0.0005274191498756409 -0.0013519376516342163
2.038 -0.0005417689681053162 -0.001350685954093933
2.039 -0.0005461424589157104 -0.001342572271823883
2.04 -0.0005573779344558716 -0.001334458589553833
2.041 -0.0005654916167259216 -0.001347571611404419
2.042 -0.00056486576795578 -0.001344442367553711
2.043 -0.0005798488855361938 -0.0013569295406341553
2.044 -0.000586092472076416 -0.0013600513339042664
2.045 -0.0005929544568061829 -0.0013500675559043884
2.046 -0.0006185472011566162 -0.0013644173741340637
2.047 -0.0006247907876968384 -0.0013775229454040527
2.048 -0.0006347745656967163 -0.0013794004917144775
2.049 -0.0006272867321968079 -0.0013569295406341553
2.05 -0.0006347745656967163 -0.0013881400227546692
2.051 -0.0006428882479667664 -0.0013681650161743164
2.052 -0.0006591156125068665 -0.0013644173741340637
2.053 -0.0006765946745872498 -0.0013681650161743164
2.054 -0.0006628632545471191 -0.0013631731271743774
2.055 -0.0006666108965873718 -0.0013594254851341248
2.056 -0.0006878301501274109 -0.001355677843093872
2.057 -0.0006815865635871887 -0.0013550594449043274
2.058 -0.0006890743970870972 -0.0013706609606742859
2.059 -0.0006990581750869751 -0.0013594254851341248
2.06 -0.0007102936506271362 -0.0013581812381744385
2.061 -0.0007159113883972168 -0.0013469457626342773
2.062 -0.0007227808237075806 -0.0013631731271743774
2.063 -0.0007240325212478638 -0.0013725310564041138
2.064 -0.0007346421480178833 -0.0013519376516342163
2.065 -0.0007408857345581055 -0.0013631731271743774
2.066 -0.0007477477192878723 -0.0013488158583641052
2.067 -0.0007552355527877808 -0.0013469457626342773
2.068 -0.0007714629173278809 -0.0013357102870941162
2.069 -0.0007633492350578308 -0.001347564160823822
2.07 -0.0007789582014083862 -0.0013494417071342468
2.071 -0.0007708445191383362 -0.0013563036918640137
2.072 -0.0007839500904083252 -0.001331336796283722
2.073 -0.0007914379239082336 -0.0013319626450538635
2.074 -0.0007939338684082031 -0.001329466700553894
2.075 -0.0008008033037185669 -0.0013307109475135803
2.076 -0.000812038779258728 -0.001326344907283783
2.077 -0.0008057951927185059 -0.0013194754719734192
2.078 -0.0008195266127586365 -0.0013257190585136414
2.079 -0.0008263885974884033 -0.0013319626450538635
2.08 -0.0008401274681091309 -0.001318231225013733
2.081 -0.0008313879370689392 -0.0013194754719734192
2.082 -0.0008469894528388977 -0.0013207271695137024
2.083 -0.0008407458662986755 -0.0013169795274734497
2.084 -0.0008607208728790283 -0.0013157352805137634
2.085 -0.0008619725704193115 -0.0012970119714736938
2.086 -0.0008688345551490784 -0.0012995079159736633
2.087 -0.0008769482374191284 -0.001316361129283905
2.088 -0.0008844360709190369 -0.0012851506471633911
2.089 -0.0008863136172294617 -0.00128202885389328
2.09 -0.0008962973952293396 -0.0012814104557037354
2.091 -0.0009050369262695312 -0.0012814030051231384
2.092 -0.0009118989109992981 -0.0012670531868934631
2.093 -0.000913769006729126 -0.0012651756405830383
2.094 -0.0009012892842292786 -0.0012645572423934937
2.095 -0.0009206384420394897 -0.0012564361095428467
2.096 -0.0009256303310394287 -0.0012620612978935242
2.097 -0.0009287521243095398 -0.0012533217668533325
2.098 -0.0009312480688095093 -0.0012564361095428467
2.099 -0.0009393617510795593 -0.0012383386492729187
2.1 -0.0009587109088897705 -0.0012283548712730408
2.101 -0.0009524747729301453 -0.0012358427047729492
2.102 -0.0009531006217002869 -0.001234598457813263
2.103 -0.0009499788284301758 -0.0012146234512329102
2.104 -0.0009711980819702148 -0.0012146234512329102
2.105 -0.000969327986240387 -0.0012102499604225159
2.106 -0.0009674504399299622 -0.0012171193957328796
2.107 -0.00096932053565979 -0.0012008845806121826
2.108 -0.0009861811995506287 -0.0011859089136123657
2.109 -0.000980563461780548 -0.0011896565556526184
2.11 -0.0009886696934700012 -0.0011827871203422546
2.111 -0.0010105222463607788 -0.0011890307068824768
2.112 -0.0010161399841308594 -0.001177169382572174
2.113 -0.0010205060243606567 -0.0011734291911125183
2.114 -0.0010142624378204346 -0.001137852668762207
2.115 -0.0010304898023605347 -0.0011653080582618713
2.116 -0.001029863953590393 -0.0011553242802619934
2.117 -0.001039855182170868 -0.0011434629559516907
2.118 -0.00104609876871109 -0.0011453405022621155
2.119 -0.0010373592376708984 -0.0011259913444519043
2.12 -0.0010517165064811707 -0.001134723424911499
2.121 -0.0010585784912109375 -0.0011253654956817627
2.122 -0.0010679438710212708 -0.0011172518134117126
2.123 -0.0010860413312911987 -0.0011197477579116821
2.124 -0.0010673180222511292 -0.0011047646403312683
2.125 -0.001064196228981018 -0.0010866671800613403
2.126 -0.001066066324710846 -0.0010854154825210571
2.127 -0.0010748058557510376 -0.001085422933101654
2.128 -0.0010635703802108765 -0.001056082546710968
2.129 -0.0010704398155212402 -0.0010523423552513123
2.13 -0.0010941550135612488 -0.001052960753440857
2.1310000000000002 -0.0010929107666015625 -0.001059204339981079
2.132 -0.001100398600101471 -0.001051090657711029
2.133 -0.0010941550135612488 -0.0010292455554008484
2.134 -0.0010960325598716736 -0.0010261237621307373
2.135 -0.0011110082268714905 -0.001008644700050354
2.136 -0.001111634075641632 -0.0009961649775505066
2.137 -0.0011047646403312683 -0.0009936690330505371
2.138 -0.001103520393371582 -0.0009899213910102844
2.1390000000000002 -0.001103520393371582 -0.000969327986240387
2.14 -0.0011060163378715515 -0.0009599626064300537
2.141 -0.001098528504371643 -0.0009543448686599731
2.142 -0.0011178776621818542 -0.0009468570351600647
2.143 -0.0011016428470611572 -0.0009181424975395203
2.144 -0.0011122599244117737 -0.0009337514638900757
2.145 -0.0011022686958312988 -0.0009200125932693481
2.146 -0.001111634075641632 -0.0009131506085395813
2.147 -0.00111350417137146 -0.0009012892842292786
2.148 -0.0010891631245613098 -0.0008863136172294617
2.149 -0.0010891631245613098 -0.0008732005953788757
2.15 -0.0010966509580612183 -0.0008613467216491699
2.151 -0.0010997727513313293 -0.000848233699798584
2.152 -0.001108512282371521 -0.0008507370948791504
2.153 -0.0010966509580612183 -0.0008363798260688782
2.154 -0.0010891631245613098 -0.0008288845419883728
2.155 -0.0010797977447509766 -0.0008307620882987976
2.156 -0.0010910332202911377 -0.0007964298129081726
2.157 -0.0010810494422912598 -0.0008001774549484253
2.158 -0.0010829195380210876 -0.000790812075138092
2.159 -0.0010704398155212402 -0.0007702186703681946
2.16 -0.001066066324710846 -0.0007727146148681641
2.161 -0.0010785534977912903 -0.0007464960217475891
2.162 -0.0010698139667510986 -0.0007552355527877808
2.163 -0.0010679438710212708 -0.0007483735680580139
2.164 -0.0010604560375213623 -0.0007246509194374084
2.165 -0.0010679438710212708 -0.0007277727127075195
2.166 -0.0010573267936706543 -0.0007102936506271362
2.167 -0.0010392293334007263 -0.0007115453481674194
2.168 -0.0010317414999008179 -0.0006884485483169556
2.169 -0.0010485947132110596 -0.0006784647703170776
2.17 -0.001008644700050354 -0.0006691068410873413
2.171 -0.001011766493320465 -0.0006522536277770996
2.172 -0.0010111406445503235 -0.0006522536277770996
2.173 -0.0010030269622802734 -0.0006366446614265442
2.174 -0.0009980350732803345 -0.0006541237235069275
2.175 -0.000987425446510315 -0.0006141811609268188
2.176 -0.0009917914867401123 -0.000617295503616333
2.177 -0.0009818077087402344 -0.0006060600280761719
2.178 -0.0009574666619300842 -0.0006054416298866272
2.179 -0.00096120685338974 -0.0005917102098464966
2.18 -0.0009506046772003174 -0.0005860850214958191
2.181 -0.0009412392973899841 -0.0005792230367660522
2.182 -0.000943109393119812 -0.0005754753947257996
2.183 -0.000934995710849762 -0.0005623698234558105
2.184 -0.0009281262755393982 -0.0005561336874961853
2.185 -0.0009137764573097229 -0.0005555078387260437
2.186 -0.0009025409817695618 -0.0005430206656455994
2.187 -0.000900663435459137 -0.0005455166101455688
2.188 -0.0008931756019592285 -0.0005498901009559631
2.189 -0.0008938014507293701 -0.0005274191498756409
2.19 -0.0008682087063789368 -0.0005211755633354187
2.191 -0.0008682087063789368 -0.0005174353718757629
2.192 -0.0008544772863388062 -0.000509314239025116
2.193 -0.0008494853973388672 -0.0005012005567550659
2.194 -0.0008288919925689697 -0.0004943385720252991
2.195 -0.0008276402950286865 -0.0004737377166748047
2.196 -0.0008363798260688782 -0.0005086958408355713
2.197 -0.0008114129304885864 -0.0004855990409851074
2.198 -0.0008114129304885864 -0.0004712417721748352
2.199 -0.0008032992482185364 -0.0004731118679046631
2.2 -0.0008057951927185059 -0.0004562661051750183
2.201 -0.0007727146148681641 -0.00046750158071517944
2.202 -0.0007752701640129089 -0.0004341006278991699
2.203 -0.00077027827501297 -0.0004515647888183594
2.204 -0.000750318169593811 -0.0004478245973587036
2.205 -0.0007384642958641052 -0.0004434511065483093
2.206 -0.0007415860891342163 -0.00044407695531845093
2.207 -0.0007197558879852295 -0.0004434511065483093
2.208 -0.0007297322154045105 -0.0004390925168991089
2.209 -0.0007116496562957764 -0.00042037665843963623
2.21 -0.0006991773843765259 -0.0004110187292098999
2.211 -0.0006854534149169922 -0.000414140522480011
2.212 -0.000674225389957428 -0.0004104003310203552
2.213 -0.0006804615259170532 -0.0004147663712501526
2.214 -0.0006673634052276611 -0.0004147663712501526
2.215 -0.0006704851984977722 -0.0003916919231414795
2.216 -0.0006617531180381775 -0.0004029124975204468
2.217 -0.0006336867809295654 -0.0004004165530204773
2.218 -0.0006436631083488464 -0.00038420408964157104
2.219 -0.0006343051791191101 -0.000399172306060791
2.22 -0.0006180927157402039 -0.0003798380494117737
2.221 -0.0006006285548210144 -0.00038357824087142944
2.222 -0.0005956366658210754 -0.00037048012018203735
2.223 -0.000601254403591156 -0.0003798380494117737
2.224 -0.0005769282579421997 -0.0003748461604118347
2.225 -0.0005837902426719666 -0.0003767162561416626
2.226 -0.0005725622177124023 -0.0003767162561416626
2.227 -0.0005638301372528076 -0.00039480626583099365
2.228 -0.0005513578653335571 -0.00038482993841171265
2.229 -0.0005451217293739319 -0.0003804638981819153
2.23 -0.0005313977599143982 -0.0003773421049118042
2.231 -0.000510193407535553 -0.0003785938024520874
2.232 -0.0005095675587654114 -0.0003567636013031006
2.233 -0.0004958435893058777 -0.000341169536113739
2.234 -0.0004914775490760803 -0.00035925209522247314
2.235 -0.0004815012216567993 -0.00035114586353302
2.236 -0.0004733949899673462 -0.00035114586353302
2.237 -0.0004627928137779236 -0.00033867359161376953
2.238 -0.00046341121196746826 -0.00034990161657333374
2.239 -0.0004584193229675293 -0.00035862624645233154
2.24 -0.00044283270835876465 -0.000356137752532959
2.241 -0.00041726231575012207 -0.00036237388849258423
2.242 -0.0004110187292098999 -0.0003449097275733948
2.243 -0.00040853023529052734 -0.00034677982330322266
2.244 -0.00040603429079055786 -0.00034802407026290894
2.245 -0.00039293617010116577 -0.0003667399287223816
2.246 -0.0003773421049118042 -0.0003517717123031616
2.247 -0.0003754720091819763 -0.00034803152084350586
2.248 -0.00037235766649246216 -0.00035675615072250366
2.249 -0.00037110596895217896 -0.0003692358732223511
2.25 -0.00035987794399261475 -0.00034802407026290894
2.251 -0.0003399178385734558 -0.0003636181354522705
2.252 -0.00034677982330322266 -0.0003523901104927063
2.253 -0.00031247735023498535 -0.00036050379276275635
2.254 -0.00030998140573501587 -0.00035800784826278687
2.255 -0.0003049895167350769 -0.00035800784826278687
2.256 -0.00028004497289657593 -0.00036050379276275635
2.257 -0.00028565526008605957 -0.00035800784826278687
2.258 -0.00027817487716674805 -0.00036050379276275635
2.259 -0.0002575889229774475 -0.0003692358732223511
2.26 -0.0002588406205177307 -0.0003804638981819153
2.261 -0.00023888051509857178 -0.0003785938024520874
2.262 -0.00023076683282852173 -0.00037422776222229004
2.263 -0.00021892040967941284 -0.00038482993841171265
2.264 -0.00020831823348999023 -0.0003785863518714905
2.265 -0.00021455436944961548 -0.0003779679536819458
2.266 -0.00020457804203033447 -0.0004116445779800415
2.267 -0.00021018832921981812 -0.000409148633480072
2.268 -0.00019646435976028442 -0.0004241243004798889
2.269 -0.0001889839768409729 -0.0004259869456291199
2.27 -0.00016341358423233032 -0.000409148633480072
2.271 -0.00016341358423233032 -0.00042162835597991943
2.2720000000000007 -0.00015094131231307983 -0.0004347264766693115
2.273 -0.0001534298062324524 -0.0004365965723991394
2.274 -0.000144079327583313 -0.00044532865285873413
2.275 -0.00013971328735351562 -0.0004334747791290283
2.276 -0.0001309812068939209 -0.00044283270835876465
2.277 -0.00011601299047470093 -0.00045280903577804565
2.278 -0.00011289119720458984 -0.0004596710205078125
2.279 -0.00011850893497467041 -0.00047526508569717407
2.2800000000000007 -8.732080459594727e-05 -0.00047463923692703247
2.281 -7.23525881767273e-05 -0.00047650933265686035
2.282 -8.108466863632202e-05 -0.00047526508569717407
2.283 -9.542703628540039e-05 -0.0004945993423461914
2.284 -6.112456321716309e-05 -0.000510193407535553
2.285 -7.17267394065857e-05 -0.0004914775490760803
2.286 -7.422268390655518e-05 -0.0005139335989952087
2.287 -6.362050771713257e-05 -0.0005214214324951172
2.2880000000000003 -4.179030656814575e-05 -0.0005338937044143677
2.289 -5.176663398742676e-05 -0.000530146062374115
2.29 -3.742426633834839e-05 -0.000530146062374115
2.291 -2.993643283843994e-05 -0.000558219850063324
2.292 -1.7464160919189453e-05 -0.0005600824952125549
2.293 -1.1228024959564209e-05 -0.0005575940012931824
2.294 -1.9960105419158936e-05 -0.0005625784397125244
2.295 -9.98377799987793e-06 -0.0005719363689422607
2.296 -1.185387372970581e-05 -0.0005763024091720581
2.297 -1.6219913959503174e-05 -0.0006006285548210144
2.298 -7.487833499908447e-06 -0.0005981326103210449
2.299 4.984438419342041e-06 -0.0006237030029296875
2.3 -1.2516975402832031e-06 -0.0006081163883209229
2.301 1.0602176189422607e-05 -0.0006361827254295349
2.302 4.991888999938965e-06 -0.0006380528211593628
2.303 1.3723969459533691e-05 -0.0006480291485786438
2.304 1.2442469596862793e-06 -0.0006667375564575195
2.305 6.236135959625244e-06 -0.000664249062538147
2.306 1.8708407878875732e-05 -0.0006767213344573975
2.307 2.4959444999694824e-06 -0.0006810873746871948
2.308 1.496821641921997e-05 -0.0006860718131065369
2.309 7.4803829193115234e-06 -0.0006960555911064148
2.31 9.976327419281006e-06 -0.000722251832485199
2.311 9.976327419281006e-06 -0.0007210075855255127
2.312 4.991888999938965e-06 -0.0007384717464447021
2.313 1.621246337890625e-05 -0.0007297322154045105
2.314 1.2472271919250488e-05 -0.0007397159934043884
2.315 2.2448599338531494e-05 -0.0007365942001342773
2.316 2.2448599338531494e-05 -0.0007571801543235779
2.317 2.1830201148986816e-05 -0.0007540583610534668
2.318 2.1204352378845215e-05 -0.0007465779781341553
2.319 1.3723969459533691e-05 -0.0007765144109725952
2.32 2.744048833847046e-05 -0.0007852464914321899
2.321 1.9334256649017334e-05 -0.0007727667689323425
2.322 2.4944543838500977e-05 -0.0007858723402023315
2.323 2.3700296878814697e-05 -0.0008002147078514099
2.324 3.2432377338409424e-05 -0.0007995888590812683
2.325 3.6172568798065186e-05 -0.0008126869797706604
2.326 2.6814639568328857e-05 -0.0008239150047302246
2.327 4.179030656814575e-05 -0.0008251592516899109
2.328 3.2432377338409424e-05 -0.0008301511406898499
2.329 4.614889621734619e-05 -0.0008301511406898499
2.33 3.2432377338409424e-05 -0.0008438751101493835
2.331 4.6156346797943115e-05 -0.0008656978607177734
2.332 4.5530498027801514e-05 -0.0008588433265686035
2.333 3.742426633834839e-05 -0.0008738115429878235
2.334 5.363672971725464e-05 -0.0008675754070281982
2.335 3.991276025772095e-05 -0.0008925199508666992
2.336 3.36766242980957e-05 -0.000896260142326355
2.337 3.36766242980957e-05 -0.0009137243032455444
2.338 3.4302473068237305e-05 -0.0009112358093261719
2.339 3.866851329803467e-05 -0.0009262040257453918
2.34 3.30507755279541e-05 -0.0009567588567733765
2.341 2.993643283843994e-05 -0.0009399205446243286
2.342 3.180652856826782e-05 -0.0009611323475837708
2.343 2.993643283843994e-05 -0.0009474083781242371
2.344 3.118067979812622e-05 -0.0009542703628540039
2.345 4.053860902786255e-05 -0.0009779706597328186
2.346 4.366040229797363e-05 -0.000972360372543335
2.347 3.9286911487579346e-05 -0.0009910687804222107
2.348 4.116445779800415e-05 -0.0009997934103012085
2.349 4.240870475769043e-05 -0.0010060369968414307
2.35 4.116445779800415e-05 -0.001020379364490509
2.351 3.4928321838378906e-05 -0.0010141432285308838
2.352 4.053860902786255e-05 -0.0010322332382202148
2.3529999999999993 3.30507755279541e-05 -0.00103846937417984
2.354 1.9960105419158936e-05 -0.0010397136211395264
2.355 2.744048833847046e-05 -0.0010646656155586243
2.356 2.2448599338531494e-05 -0.0010808780789375305
2.357 1.683831214904785e-05 -0.001080252230167389
2.358 1.683831214904785e-05 -0.0010827481746673584
2.359 2.2448599338531494e-05 -0.001088365912437439
2.36 3.30507755279541e-05 -0.0010970905423164368
2.361 2.2448599338531494e-05 -0.0011207982897758484
2.362 1.309812068939209e-05 -0.00112827867269516
2.363 1.7464160919189453e-05 -0.0011501088738441467
2.364 2.3700296878814697e-05 -0.0011476129293441772
2.365 1.1228024959564209e-05 -0.0011457428336143494
2.366 7.4803829193115234e-06 -0.0011700689792633057
2.367 7.4803829193115234e-06 -0.00116632878780365
2.368 -3.7476420402526855e-06 -0.001194395124912262
2.369 1.2442469596862793e-06 -0.0011837929487228394
2.37 -2.8692185878753662e-05 -0.0012018755078315735
2.371 -8.732080459594727e-06 -0.0012137293815612793
2.372 -2.1204352378845215e-05 -0.001217469573020935
2.373 -2.619624137878418e-05 -0.0012480318546295166
2.374 -2.7447938919067383e-05 -0.0012417957186698914
2.375 -3.6172568798065186e-05 -0.0012548938393592834
2.376 -5.114823579788208e-05 -0.0012742280960083008
2.377 -5.363672971725464e-05 -0.0012729838490486145
2.378 -4.054605960845947e-05 -0.0012891963124275208
2.379 -5.364418029785156e-05 -0.0012929365038871765
2.38 -5.8628618717193604e-05 -0.0013228729367256165
2.381 -6.237626075744629e-05 -0.0013016685843467712
2.382 -6.112456321716309e-05 -0.001308530569076538
