!Created with skrf (http://scikit-rf.org).
# GHz S RI R 50.0 
!freq ReS11 ImS11 ReS21 ImS21 ReS12 ImS12 ReS22 ImS22
2.0 -0.00014238804578781128 -0.0012602657079696655 0.0017654970288276672 0.0017923489212989807 -0.003096960484981537 -0.0028315484523773193 -0.0022257640957832336 0.0004671365022659302
2.001 -0.00014238804578781128 -0.0012540221214294434 0.0018622949719429016 0.0016855597496032715 -0.0031725317239761353 -0.0027197524905204773 -0.0022126510739326477 0.0004846230149269104
2.002 -0.00017236918210983276 -0.0012721344828605652 0.0019628405570983887 0.0015993788838386536 -0.0032162442803382874 -0.0026004761457443237 -0.002167060971260071 0.000520847737789154
2.003 -0.00016924738883972168 -0.0012877508997917175 0.0020390376448631287 0.0014844685792922974 -0.003299929201602936 -0.0024924352765083313 -0.0021483302116394043 0.00054207444190979
2.004 -0.0001867339015007019 -0.0013027414679527283 0.002113349735736847 0.0013751760125160217 -0.003358006477355957 -0.002384394407272339 -0.0021302178502082825 0.000558316707611084
2.005 -0.00020422041416168213 -0.0013152286410331726 0.002167060971260071 0.0012490302324295044 -0.0034104660153388977 -0.002271980047225952 -0.002093367278575897 0.0005670562386512756
2.006 -0.00021170824766159058 -0.001317724585533142 0.0022682324051856995 0.00115097314119339 -0.0034548118710517883 -0.002130836248397827 -0.0020552724599838257 0.0005932822823524475
2.007 -0.00022920221090316772 -0.0013339594006538391 0.00232069194316864 0.0010154619812965393 -0.003496028482913971 -0.0020146816968917847 -0.002045281231403351 0.0006051510572433472
2.008 -0.0002529323101043701 -0.0013576969504356384 0.0023637786507606506 0.0008874312043190002 -0.0035384967923164368 -0.001876041293144226 -0.0020103082060813904 0.0006157681345939636
2.009 -0.0002816542983055115 -0.0013670623302459717 0.002409994602203369 0.0007437914609909058 -0.0035647228360176086 -0.001764252781867981 -0.0019903257489204407 0.0006338804960250854
2.01 -0.00028665363788604736 -0.001376427710056305 0.002461828291416168 0.0006188899278640747 -0.003580339252948761 -0.0016274824738502502 -0.0019484832882881165 0.0006532371044158936
2.011 -0.0003003925085067749 -0.0013789311051368713 0.00250929594039917 0.0004746243357658386 -0.003591582179069519 -0.001473851501941681 -0.0019210055470466614 0.0006632283329963684
2.012 -0.0003047659993171692 -0.0014095306396484375 0.0025748685002326965 0.0003597140312194824 -0.0036084428429603577 -0.001327715814113617 -0.00190039724111557 0.0006857141852378845
2.013 -0.0003284960985183716 -0.0013932958245277405 0.002596721053123474 0.00022295117378234863 -0.003605946898460388 -0.0012003183364868164 -0.0018735453486442566 0.0006894618272781372
2.014 -0.0003478527069091797 -0.0014076530933380127 0.0026060938835144043 6.057322025299072e-05 -0.00361468642950058 -0.001054808497428894 -0.0018523111939430237 0.0006838440895080566
2.015 -0.00036346912384033203 -0.0014032796025276184 0.0026285722851753235 -6.86943531036377e-05 -0.003604695200920105 -0.0009067952632904053 -0.0018167123198509216 0.000696331262588501
2.016 -0.00037970393896102905 -0.001408904790878296 0.002642318606376648 -0.00022108107805252075 -0.0035971999168395996 -0.0007537901401519775 -0.0017954781651496887 0.0007188096642494202
2.017 -0.00040843337774276733 -0.0014188960194587708 0.0026560500264167786 -0.0003690943121910095 -0.003562226891517639 -0.0006007850170135498 -0.0017654970288276672 0.0007188171148300171
2.018 -0.00043029338121414185 -0.001412026584148407 0.002660423517227173 -0.0005227178335189819 -0.0035372450947761536 -0.0004558935761451721 -0.001739896833896637 0.0007331743836402893
2.019 -0.00042717158794403076 -0.0014257654547691345 0.0026479363441467285 -0.0006688535213470459 -0.0034954026341438293 -0.00031163543462753296 -0.0017061755061149597 0.0007487908005714417
2.02 -0.000469014048576355 -0.0014176443219184875 0.0026366934180259705 -0.0008137449622154236 -0.0034379512071609497 -0.00015050917863845825 -0.0016855672001838684 0.0007487908005714417
2.021 -0.0004646405577659607 -0.0014276355504989624 0.002617962658405304 -0.0009761154651641846 -0.003387361764907837 -3.746896982192993e-05 -0.0016855672001838684 0.0007581561803817749
2.022 -0.0005052313208580017 -0.0014226436614990234 0.002583608031272888 -0.001135990023612976 -0.003343023359775543 0.00010491907596588135 -0.001655586063861847 0.0007487908005714417
2.023 -0.0005139783024787903 -0.0014326348900794983 0.002559252083301544 -0.0012815073132514954 -0.003279946744441986 0.00024043768644332886 -0.0016468390822410583 0.0007606521248817444
2.024 -0.0005164742469787598 -0.001460738480091095 0.002533644437789917 -0.001417018473148346 -0.003205627202987671 0.00038157403469085693 -0.0016281083226203918 0.000769399106502533
2.025 -0.0005495697259902954 -0.0014357566833496094 0.0024724453687667847 -0.0015893876552581787 -0.003145672380924225 0.0004946142435073853 -0.0016118735074996948 0.000756286084651947
2.026 -0.0005608126521110535 -0.0014413818717002869 0.0024131163954734802 -0.001720532774925232 -0.00305137038230896 0.0006332546472549438 -0.001585640013217926 0.0007681474089622498
2.027 -0.000566437840461731 -0.0014170259237289429 0.002377524971961975 -0.0018754154443740845 -0.002952076494693756 0.0007825121283531189 -0.001561284065246582 0.0007825121283531189
2.028 -0.000574551522731781 -0.001398913562297821 0.0023300573229789734 -0.0020096898078918457 -0.0028477832674980164 0.0008880570530891418 -0.0015400499105453491 0.000793755054473877
2.029 -0.0006020292639732361 -0.0013914182782173157 0.0022644847631454468 -0.0021689385175704956 -0.0027628466486930847 0.0010123327374458313 -0.0015188232064247131 0.0007850155234336853
2.03 -0.0006032809615135193 -0.0013920441269874573 0.00218142569065094 -0.0023038312792778015 -0.002652309834957123 0.0011110082268714905 -0.0015194416046142578 0.0007862597703933716
2.031 -0.0006420016288757324 -0.0013839229941368103 0.002105236053466797 -0.0024437233805656433 -0.0025392696261405945 0.0012290403246879578 -0.0015050768852233887 0.0007881373167037964
2.032 -0.0006195157766342163 -0.0013839229941368103 0.0020121783018112183 -0.002574250102043152 -0.002436228096485138 0.0013345852494239807 -0.0014732256531715393 0.0008118674159049988
2.033 -0.0006513670086860657 -0.0013801753520965576 0.0019272491335868835 -0.0026935264468193054 -0.002316318452358246 0.0014420002698898315 -0.0014713555574417114 0.0008012503385543823
2.034 -0.0006413757801055908 -0.001360192894935608 0.0018329471349716187 -0.00282905250787735 -0.0021870508790016174 0.0015313029289245605 -0.0014601126313209534 0.0008118674159049988
2.035 -0.0006682276725769043 -0.0013483241200447083 0.0017298981547355652 -0.0029626935720443726 -0.0020802542567253113 0.00160999596118927 -0.0014345049858093262 0.0008237287402153015
2.036 -0.0006619840860366821 -0.001363314688205719 0.001634351909160614 -0.0030651167035102844 -0.001926623284816742 0.0017005428671836853 -0.0014164000749588013 0.0008449628949165344
2.037 -0.0006726011633872986 -0.0013289675116539001 0.0015300586819648743 -0.003197506070137024 -0.0018173381686210632 0.0017748624086380005 -0.0014095306396484375 0.0008512139320373535
2.038 -0.0006713569164276123 -0.0013127252459526062 0.0014057755470275879 -0.003303050994873047 -0.001674942672252655 0.0018348172307014465 -0.0013882964849472046 0.0008562058210372925
2.039 -0.0006750971078872681 -0.0013039857149124146 0.001298360526561737 -0.003401726484298706 -0.0015306845307350159 0.0018935203552246094 -0.0013783052563667297 0.0008643195033073425
2.04 -0.0006807222962379456 -0.0013077333569526672 0.0011878237128257751 -0.003522254526615143 -0.0014064088463783264 0.0019278675317764282 -0.0013676881790161133 0.0008711963891983032
2.041 -0.0007038265466690063 -0.0013002380728721619 0.0010310709476470947 -0.0036296695470809937 -0.0012702643871307373 0.0019859522581100464 -0.001360192894935608 0.000886179506778717
2.042 -0.0007007047533988953 -0.0012814998626708984 0.0009055435657501221 -0.0037089884281158447 -0.0011341199278831482 0.00201280415058136 -0.0013314634561538696 0.0008961781859397888
2.043 -0.0006932094693183899 -0.0012783780694007874 0.000780642032623291 -0.0037932991981506348 -0.0009811073541641235 0.0020590201020240784 -0.0013289675116539001 0.0009030401706695557
2.044 -0.000691339373588562 -0.0012596473097801208 0.0006326287984848022 -0.003870733082294464 -0.0008655786514282227 0.0020640119910240173 -0.0013283416628837585 0.00090741366147995
2.045 -0.000704452395439148 -0.0012590214610099792 0.0004983618855476379 -0.0039300620555877686 -0.0007231906056404114 0.002087123692035675 -0.001306489109992981 0.0009180307388305664
2.046 -0.0007113218307495117 -0.0012590214610099792 0.0003422349691390991 -0.004006877541542053 -0.0005795508623123169 0.002106480300426483 -0.0012914910912513733 0.0009486377239227295
2.047 -0.0007057040929794312 -0.0012440308928489685 0.0002266913652420044 -0.004058092832565308 -0.00042966753244400024 0.0021039843559265137 -0.0012715086340904236 0.0009567514061927795
2.048 -0.0006875917315483093 -0.0012590214610099792 7.431209087371826e-05 -0.0041136667132377625 -0.0002991408109664917 0.002111479640007019 -0.0012359172105789185 0.0009861066937446594
2.049 -0.000683218240737915 -0.001219049096107483 -6.619840860366821e-05 -0.004148021340370178 -0.00017362087965011597 0.0020958632230758667 -0.0012321695685386658 0.0010073333978652954
2.05 -0.000680096447467804 -0.0012121796607971191 -0.00021608173847198486 -0.004198603332042694 -1.7486512660980225e-05 0.002074003219604492 -0.0012215524911880493 0.0010210797190666199
2.051 -0.0006819739937782288 -0.001205936074256897 -0.0003528520464897156 -0.004226706922054291 0.00010866671800613403 0.002075880765914917 -0.001184701919555664 0.001027323305606842
2.052 -0.0006713569164276123 -0.001209057867527008 -0.0004964917898178101 -0.004243575036525726 0.00023231655359268188 0.002040281891822815 -0.0011640936136245728 0.0010585486888885498
2.053 -0.0006676092743873596 -0.001204065978527069 -0.0006363764405250549 -0.004249192774295807 0.0003640875220298767 0.0019971951842308044 -0.0011528506875038147 0.0010604187846183777
2.054 -0.0006794705986976624 -0.0012109354138374329 -0.000793755054473877 -0.004270419478416443 0.0005002319812774658 0.001964092254638672 -0.0011216327548027039 0.0010735392570495605
2.055 -0.0006551146507263184 -0.0011940672993659973 -0.0009442642331123352 -0.004247322678565979 0.0006301328539848328 0.001916632056236267 -0.0010916516184806824 0.0011041387915611267
2.056 -0.000642627477645874 -0.0011834576725959778 -0.0010866522789001465 -0.00425294041633606 0.0007306784391403198 0.0018473118543624878 -0.0010735392570495605 0.0011178776621818542
2.057 -0.0006401240825653076 -0.0011915713548660278 -0.0012071877717971802 -0.004239201545715332 0.0008574575185775757 0.001807965338230133 -0.0010473132133483887 0.0011334866285324097
2.058 -0.0006407499313354492 -0.0011909455060958862 -0.0013770535588264465 -0.0042254626750946045 0.0009542554616928101 0.001744888722896576 -0.001022331416606903 0.0011565983295440674
2.059 -0.000634506344795227 -0.0011909455060958862 -0.0015069544315338135 -0.004191108047962189 0.0010672882199287415 0.0016674473881721497 -0.0010004714131355286 0.001170337200164795
2.06 -0.0006320104002952576 -0.0012053102254867554 -0.001650586724281311 -0.0041686296463012695 0.0011790767312049866 0.001587510108947754 -0.0009642541408538818 0.0011928156018257141
2.061 -0.0006207674741744995 -0.0012028142809867859 -0.0017486438155174255 -0.0041086748242378235 0.0012852475047111511 0.0015169382095336914 -0.0009417682886123657 0.0012177973985671997
2.062 -0.0006201416254043579 -0.001204065978527069 -0.001910388469696045 -0.00406433641910553 0.0013708025217056274 0.0014195218682289124 -0.0009142905473709106 0.0012177973985671997
2.063 -0.0006226375699043274 -0.0012146756052970886 -0.002014055848121643 -0.004005007445812225 0.001465730369091034 0.0013576894998550415 -0.0008830651640892029 0.001249648630619049
2.064 -0.00061827152967453 -0.0012028142809867859 -0.0021414607763290405 -0.003941304981708527 0.0015650317072868347 0.0012602657079696655 -0.000845596194267273 0.0012652650475502014
2.065 -0.0006151497364044189 -0.0012227967381477356 -0.0022813454270362854 -0.0038863494992256165 0.0016387179493904114 0.0011547207832336426 -0.0008087456226348877 0.0012802556157112122
2.066 -0.0006101503968238831 -0.0012240484356880188 -0.002382524311542511 -0.0038039088249206543 0.0017130374908447266 0.0010554268956184387 -0.0007706508040428162 0.0012877434492111206
2.067 -0.0006245151162147522 -0.001233413815498352 -0.002493061125278473 -0.0037302225828170776 0.001785479485988617 0.000918656587600708 -0.0007743984460830688 0.0012765079736709595
2.068 -0.0006188973784446716 -0.0012452825903892517 -0.00261109322309494 -0.003645285964012146 0.001877911388874054 0.0008237287402153015 -0.0007169470191001892 0.0013139769434928894
2.069 -0.0006032809615135193 -0.0012402832508087158 -0.0026860311627388 -0.0035566017031669617 0.0019259974360466003 0.0007250607013702393 -0.0006682351231575012 0.0013314634561538696
2.07 -0.0006157755851745605 -0.001252777874469757 -0.0027984455227851868 -0.003447316586971283 0.0019797086715698242 0.0005945339798927307 -0.000634506344795227 0.0013383328914642334
2.071 -0.0006057769060134888 -0.0012540221214294434 -0.00288400799036026 -0.003359884023666382 0.0020396634936332703 0.0004821270704269409 -0.0006126537919044495 0.0013408288359642029
2.072 -0.000602036714553833 -0.0012715086340904236 -0.0029764324426651 -0.0032437220215797424 0.002085871994495392 0.000360339879989624 -0.0005614385008811951 0.001355193555355072
2.073 -0.0006045326590538025 -0.001269012689590454 -0.0030569955706596375 -0.003137558698654175 0.002117723226547241 0.00023481249809265137 -0.000525839626789093 0.0013701841235160828
2.074 -0.0006076544523239136 -0.0012939944863319397 -0.0031313151121139526 -0.0030195266008377075 0.0021564438939094543 0.00010553747415542603 -0.0004889965057373047 0.0013658106327056885
2.075 -0.000623263418674469 -0.0012877508997917175 -0.0031993836164474487 -0.0029158517718315125 0.0021758005023002625 -2.060830593109131e-05 -0.0004434064030647278 0.0013782978057861328
2.076 -0.0006338804960250854 -0.0013139769434928894 -0.0032580867409706116 -0.0028003230690956116 0.002222016453742981 -0.00016924738883972168 -0.0004171803593635559 0.0013964101672172546
2.077 -0.0006301403045654297 -0.0013089850544929504 -0.003309294581413269 -0.0026704221963882446 0.0022501200437545776 -0.00028602778911590576 -0.0003672167658805847 0.0013907849788665771
2.078 -0.0006457492709159851 -0.0013327151536941528 -0.0033729970455169678 -0.0025324001908302307 0.002248242497444153 -0.0004309117794036865 -0.0003466084599494934 0.0013789236545562744
2.079 -0.0006519928574562073 -0.0013427063822746277 -0.003421083092689514 -0.002409994602203369 0.0022682324051856995 -0.0005651861429214478 -0.00028789788484573364 0.0013951584696769714
2.08 -0.0006488710641860962 -0.0013283416628837585 -0.003445439040660858 -0.0022694841027259827 0.002247624099254608 -0.0006957128643989563 -0.00024230778217315674 0.0013839229941368103
2.081 -0.000680096447467804 -0.0013427063822746277 -0.0034997761249542236 -0.002148948609828949 0.002249494194984436 -0.0008524581789970398 -0.00021858513355255127 0.0013895407319068909
2.082 -0.0006850883364677429 -0.0013402104377746582 -0.0035110190510749817 -0.0020084381103515625 0.0022407546639442444 -0.0009873583912849426 -0.00019172579050064087 0.0013739243149757385
2.083 -0.0006982088088989258 -0.0013383328914642334 -0.0035359933972358704 -0.0018766671419143677 0.002205781638622284 -0.0011253729462623596 -0.00015113502740859985 0.0013651847839355469
2.084 -0.0007106959819793701 -0.0013895481824874878 -0.003550983965396881 -0.0017386451363563538 0.0022051557898521423 -0.0012652650475502014 -9.55536961555481e-05 0.0013701766729354858
2.085 -0.0007125735282897949 -0.0013689398765563965 -0.0035553574562072754 -0.001593761146068573 0.002167060971260071 -0.0014182701706886292 -5.2459537982940674e-05 0.0013445764780044556
2.086 -0.0007106959819793701 -0.0013739317655563354 -0.003569096326828003 -0.0014451295137405396 0.002132713794708252 -0.0015512928366661072 -2.4981796741485596e-05 0.0013414546847343445
2.087 -0.0007494166493415833 -0.0013870447874069214 -0.003572218120098114 -0.0013052374124526978 0.0020771324634552 -0.0016849413514137268 2.2485852241516113e-05 0.0013414546847343445
2.088 -0.0007712766528129578 -0.0013964176177978516 -0.003574088215827942 -0.001170337200164795 0.002038411796092987 -0.0018366947770118713 5.745142698287964e-05 0.0013189688324928284
2.089 -0.0007875114679336548 -0.001384548842906952 -0.003557853400707245 -0.0010410696268081665 0.0019828304648399353 -0.001973465085029602 7.744133472442627e-05 0.0013039782643318176
2.09 -0.0007993802428245544 -0.0013970434665679932 -0.0035291239619255066 -0.0008999258279800415 0.0019191280007362366 -0.0020858794450759888 0.00010928511619567871 0.001306481659412384
2.091 -0.000813119113445282 -0.0014139041304588318 -0.003513514995574951 -0.0007762685418128967 0.0018348172307014465 -0.0022370070219039917 0.00014925748109817505 0.0012889951467514038
2.092 -0.0008281096816062927 -0.0014014095067977905 -0.0034904032945632935 -0.0006357580423355103 0.0017842352390289307 -0.0023718997836112976 0.00019484758377075195 0.0012590214610099792
2.093 -0.0008493438363075256 -0.0013995319604873657 -0.003440447151660919 -0.0004858747124671936 0.001712411642074585 -0.0024805665016174316 0.00023231655359268188 0.0012633875012397766
2.094 -0.0008786916732788086 -0.0013951659202575684 -0.00340859591960907 -0.0003491044044494629 0.0016012489795684814 -0.002621084451675415 0.0002554282546043396 0.0012177973985671997
2.095 -0.0008824393153190613 -0.0013995394110679626 -0.0033817440271377563 -0.00022795051336288452 0.0015194416046142578 -0.0027391165494918823 0.00028664618730545044 0.001200936734676361
2.096 -0.0008911788463592529 -0.0014182701706886292 -0.003311172127723694 -7.306784391403198e-05 0.0014307573437690735 -0.0028527826070785522 0.0003241226077079773 0.001184701919555664
2.097 -0.0009049251675605774 -0.001392662525177002 -0.0032662078738212585 2.810359001159668e-05 0.0013245940208435059 -0.0029770582914352417 0.0003516003489494324 0.001170337200164795
2.098 -0.0009199082851409912 -0.0013889223337173462 -0.003216870129108429 0.00017361342906951904 0.0012265443801879883 -0.0030825957655906677 0.00037533044815063477 0.0011453554034233093
2.099 -0.0009542554616928101 -0.0013789236545562744 -0.0031556636095046997 0.0002779066562652588 0.00111350417137146 -0.0031962618231773376 0.0004127994179725647 0.0011253729462623596
2.1 -0.0009823590517044067 -0.0013751760125160217 -0.0031200721859931946 0.0005214661359786987 0.001056678593158722 -0.0034273341298103333 0.00033660978078842163 0.0011959448456764221
2.101 -0.0009960979223251343 -0.0013814270496368408 -0.0030295178294181824 0.000517718493938446 0.0008705705404281616 -0.003374248743057251 0.00044652074575424194 0.0010666698217391968
2.102 -0.0009886100888252258 -0.0013751760125160217 -0.0029420852661132812 0.0006407499313354492 0.0007531642913818359 -0.0034835338592529297 0.00047025829553604126 0.0010423138737678528
2.103 -0.0010267049074172974 -0.0013676881790161133 -0.002862773835659027 0.0007531642913818359 0.0006188899278640747 -0.0035553574562072754 0.0004958584904670715 0.001024201512336731
2.104 -0.001043565571308136 -0.0013645663857460022 -0.002777211368083954 0.0008530840277671814 0.0004946142435073853 -0.003639042377471924 0.0005133450031280518 0.0009873583912849426
2.105 -0.001043565571308136 -0.0013314634561538696 -0.0026847869157791138 0.0009636208415031433 0.0003409832715988159 -0.00369899719953537 0.0005414485931396484 0.000962376594543457
2.106 -0.0010591745376586914 -0.001322716474533081 -0.002577364444732666 0.0010785311460494995 0.00021920353174209595 -0.0037689432501792908 0.0005676820874214172 0.0009411349892616272
